date Tue May 27 04:09:35.000 pm 2014
base hex  timestamps absolute
internal events logged
// version 10.0.1
   0.019968 1  64              Rx   d 4 64 00 00 00  Length = 0 BitCount = 0 ID = 100
   0.029964 1  64              Rx   d 4 6C 00 00 00  Length = 0 BitCount = 0 ID = 100
   0.039943 1  64              Rx   d 4 74 00 00 00  Length = 0 BitCount = 0 ID = 100
   0.039977 1  11              Rx   d 8 4A 28 F6 07 00 00 00 00  Length = 0 BitCount = 0 ID = 17
   0.049949 1  64              Rx   d 4 7C 00 00 00  Length = 0 BitCount = 0 ID = 100
   0.059945 1  64              Rx   d 4 84 00 00 00  Length = 0 BitCount = 0 ID = 100
   0.059976 1  12              Rx   d 4 00 00 00 00  Length = 0 BitCount = 0 ID = 18
   0.060015 1  66              Rx   d 1 02  Length = 0 BitCount = 0 ID = 102
   0.069970 1  11              Rx   d 8 84 29 F9 0A 00 00 00 00  Length = 0 BitCount = 0 ID = 17
   0.070001 1  64              Rx   d 4 8C 00 00 00  Length = 0 BitCount = 0 ID = 100
   0.079951 1  64              Rx   d 4 94 00 00 00  Length = 0 BitCount = 0 ID = 100
   0.089947 1  64              Rx   d 4 9C 00 00 00  Length = 0 BitCount = 0 ID = 100
   0.099951 1  64              Rx   d 4 A4 00 00 00  Length = 0 BitCount = 0 ID = 100
   0.099982 1  11              Rx   d 8 BD 2A CD 11 00 00 00 00  Length = 0 BitCount = 0 ID = 17
   0.109949 1  64              Rx   d 4 AC 00 00 00  Length = 0 BitCount = 0 ID = 100
   0.109983 1  10              Rx   d 8 10 27 00 00 00 00 00 00  Length = 0 BitCount = 0 ID = 16
   0.110014 1  12              Rx   d 4 00 00 00 00  Length = 0 BitCount = 0 ID = 18
   0.110032 1  65              Rx   d 3 01 00 00  Length = 0 BitCount = 0 ID = 101
   0.110053 1  64              Rx   d 4 B4 00 00 00  Length = 0 BitCount = 0 ID = 100
   0.129997 1  64              Rx   d 4 BC 00 00 00  Length = 0 BitCount = 0 ID = 100
   0.130036 1  11              Rx   d 8 F5 2B 4D 22 00 00 00 00  Length = 0 BitCount = 0 ID = 17
   0.139949 1  64              Rx   d 4 C4 00 00 00  Length = 0 BitCount = 0 ID = 100
   0.149954 1  64              Rx   d 4 CC 00 00 00  Length = 0 BitCount = 0 ID = 100
   0.159951 1  64              Rx   d 4 D4 00 00 00  Length = 0 BitCount = 0 ID = 100
   0.159983 1  11              Rx   d 8 2C 2D 20 1D 00 00 00 00  Length = 0 BitCount = 0 ID = 17
   0.160095 1  66              Rx   d 1 04  Length = 0 BitCount = 0 ID = 102
   0.160132 1  12              Rx   d 4 00 00 00 00  Length = 0 BitCount = 0 ID = 18
   0.169955 1  64              Rx   d 4 DC 00 00 00  Length = 0 BitCount = 0 ID = 100
   0.180007 1  64              Rx   d 4 E4 00 00 00  Length = 0 BitCount = 0 ID = 100
   0.189956 1  64              Rx   d 4 EC 00 00 00  Length = 0 BitCount = 0 ID = 100
   0.189991 1  11              Rx   d 8 62 2E 64 16 00 00 00 00  Length = 0 BitCount = 0 ID = 17
   0.199956 1  64              Rx   d 4 F4 00 00 00  Length = 0 BitCount = 0 ID = 100
   0.209970 1  64              Rx   d 4 FC 00 00 00  Length = 0 BitCount = 0 ID = 100
   0.210004 1  12              Rx   d 4 00 00 00 00  Length = 0 BitCount = 0 ID = 18
   0.210026 1  65              Rx   d 3 19 00 00  Length = 0 BitCount = 0 ID = 101
   0.210084 1  10              Rx   d 8 F3 28 00 00 00 00 00 00  Length = 0 BitCount = 0 ID = 16
   0.219957 1  64              Rx   d 4 04 01 00 00  Length = 0 BitCount = 0 ID = 100
   0.219987 1  11              Rx   d 8 95 2F 99 05 00 00 00 00  Length = 0 BitCount = 0 ID = 17
   0.229990 1  64              Rx   d 4 0C 01 00 00  Length = 0 BitCount = 0 ID = 100
   0.240004 1  64              Rx   d 4 14 01 00 00  Length = 0 BitCount = 0 ID = 100
   0.249954 1  64              Rx   d 4 1C 01 00 00  Length = 0 BitCount = 0 ID = 100
   0.249988 1  11              Rx   d 8 C7 30 D7 18 00 00 00 00  Length = 0 BitCount = 0 ID = 17
   0.259976 1  64              Rx   d 4 24 01 00 00  Length = 0 BitCount = 0 ID = 100
   0.260138 1  66              Rx   d 1 02  Length = 0 BitCount = 0 ID = 102
   0.260170 1  12              Rx   d 4 00 00 00 00  Length = 0 BitCount = 0 ID = 18
   0.269974 1  64              Rx   d 4 2C 01 00 00  Length = 0 BitCount = 0 ID = 100
   0.279956 1  64              Rx   d 4 34 01 00 00  Length = 0 BitCount = 0 ID = 100
   0.279989 1  11              Rx   d 8 F6 31 DD 2C 00 00 00 00  Length = 0 BitCount = 0 ID = 17
   0.289959 1  64              Rx   d 4 3C 01 00 00  Length = 0 BitCount = 0 ID = 100
   0.299963 1  64              Rx   d 4 44 01 00 00  Length = 0 BitCount = 0 ID = 100
   0.309957 1  64              Rx   d 4 4C 01 00 00  Length = 0 BitCount = 0 ID = 100
   0.309989 1  11              Rx   d 8 22 33 F1 14 00 00 00 00  Length = 0 BitCount = 0 ID = 17
   0.310012 1  10              Rx   d 8 D5 2A 00 00 00 00 00 00  Length = 0 BitCount = 0 ID = 16
   0.310075 1  12              Rx   d 4 01 00 00 00  Length = 0 BitCount = 0 ID = 18
   0.310097 1  65              Rx   d 3 32 00 00  Length = 0 BitCount = 0 ID = 101
   0.319936 1  64              Rx   d 4 54 01 00 00  Length = 0 BitCount = 0 ID = 100
   0.329956 1  64              Rx   d 4 5C 01 00 00  Length = 0 BitCount = 0 ID = 100
   0.339973 1  64              Rx   d 4 64 01 00 00  Length = 0 BitCount = 0 ID = 100
   0.339993 1  11              Rx   d 8 4B 34 F6 07 00 00 00 00  Length = 0 BitCount = 0 ID = 17
   0.349918 1  64              Rx   d 4 6C 01 00 00  Length = 0 BitCount = 0 ID = 100
   0.359922 1  64              Rx   d 4 74 01 00 00  Length = 0 BitCount = 0 ID = 100
   0.359957 1  66              Rx   d 1 04  Length = 0 BitCount = 0 ID = 102
   0.360032 1  12              Rx   d 4 00 00 00 00  Length = 0 BitCount = 0 ID = 18
   0.360102 1  64              Rx   d 4 7C 01 00 00  Length = 0 BitCount = 0 ID = 100
   0.360114 1  11              Rx   d 8 71 35 F9 0A 00 00 00 00  Length = 0 BitCount = 0 ID = 17
   0.380012 1  64              Rx   d 4 84 01 00 00  Length = 0 BitCount = 0 ID = 100
   0.389965 1  64              Rx   d 4 8C 01 00 00  Length = 0 BitCount = 0 ID = 100
   0.399981 1  64              Rx   d 4 94 01 00 00  Length = 0 BitCount = 0 ID = 100
   0.400017 1  11              Rx   d 8 93 36 CD 11 00 00 00 00  Length = 0 BitCount = 0 ID = 17
   0.409967 1  64              Rx   d 4 9C 01 00 00  Length = 0 BitCount = 0 ID = 100
   0.410001 1  12              Rx   d 4 00 00 00 00  Length = 0 BitCount = 0 ID = 18
   0.410024 1  65              Rx   d 3 19 00 00  Length = 0 BitCount = 0 ID = 101
   0.410086 1  10              Rx   d 8 B5 2C 00 00 00 00 00 00  Length = 0 BitCount = 0 ID = 16
   0.419955 1  64              Rx   d 4 A4 01 00 00  Length = 0 BitCount = 0 ID = 100
   0.429968 1  64              Rx   d 4 AC 01 00 00  Length = 0 BitCount = 0 ID = 100
   0.430001 1  11              Rx   d 8 B2 37 4D 22 00 00 00 00  Length = 0 BitCount = 0 ID = 17
   0.439986 1  64              Rx   d 4 B4 01 00 00  Length = 0 BitCount = 0 ID = 100
   0.440148 1  64              Rx   d 4 BC 01 00 00  Length = 0 BitCount = 0 ID = 100
   0.459928 1  64              Rx   d 4 C4 01 00 00  Length = 0 BitCount = 0 ID = 100
   0.459970 1  11              Rx   d 8 CC 38 20 1D 00 00 00 00  Length = 0 BitCount = 0 ID = 17
   0.459991 1  66              Rx   d 1 02  Length = 0 BitCount = 0 ID = 102
   0.460048 1  12              Rx   d 4 00 00 00 00  Length = 0 BitCount = 0 ID = 18
   0.469963 1  64              Rx   d 4 CC 01 00 00  Length = 0 BitCount = 0 ID = 100
   0.479988 1  64              Rx   d 4 D4 01 00 00  Length = 0 BitCount = 0 ID = 100
   0.489926 1  64              Rx   d 4 DC 01 00 00  Length = 0 BitCount = 0 ID = 100
   0.489959 1  11              Rx   d 8 E2 39 64 16 00 00 00 00  Length = 0 BitCount = 0 ID = 17
   0.499927 1  64              Rx   d 4 E4 01 00 00  Length = 0 BitCount = 0 ID = 100
   0.509930 1  64              Rx   d 4 EC 01 00 00  Length = 0 BitCount = 0 ID = 100
   0.509963 1  10              Rx   d 8 91 2E 00 00 00 00 00 00  Length = 0 BitCount = 0 ID = 16
   0.510027 1  65              Rx   d 3 01 00 00  Length = 0 BitCount = 0 ID = 101
   0.510057 1  12              Rx   d 4 00 00 00 00  Length = 0 BitCount = 0 ID = 18
   0.519946 1  64              Rx   d 4 F4 01 00 00  Length = 0 BitCount = 0 ID = 100
   0.519980 1  11              Rx   d 8 F2 3A 99 05 00 00 00 00  Length = 0 BitCount = 0 ID = 17
   0.529932 1  64              Rx   d 4 FC 01 00 00  Length = 0 BitCount = 0 ID = 100
   0.540023 1  64              Rx   d 4 04 02 00 00  Length = 0 BitCount = 0 ID = 100
   0.549926 1  64              Rx   d 4 0C 02 00 00  Length = 0 BitCount = 0 ID = 100
   0.549958 1  11              Rx   d 8 FE 3B D7 18 00 00 00 00  Length = 0 BitCount = 0 ID = 17
   0.559975 1  64              Rx   d 4 14 02 00 00  Length = 0 BitCount = 0 ID = 100
   0.560137 1  12              Rx   d 4 00 00 00 00  Length = 0 BitCount = 0 ID = 18
   0.560200 1  66              Rx   d 1 04  Length = 0 BitCount = 0 ID = 102
   0.560231 1  64              Rx   d 4 1C 02 00 00  Length = 0 BitCount = 0 ID = 100
   0.579988 1  64              Rx   d 4 24 02 00 00  Length = 0 BitCount = 0 ID = 100
   0.580022 1  11              Rx   d 8 05 3D DD 2C 00 00 00 00  Length = 0 BitCount = 0 ID = 17
   0.589973 1  64              Rx   d 4 2C 02 00 00  Length = 0 BitCount = 0 ID = 100
   0.599972 1  64              Rx   d 4 34 02 00 00  Length = 0 BitCount = 0 ID = 100
   0.609972 1  64              Rx   d 4 3C 02 00 00  Length = 0 BitCount = 0 ID = 100
   0.610004 1  11              Rx   d 8 06 3E F1 14 00 00 00 00  Length = 0 BitCount = 0 ID = 17
   0.610115 1  65              Rx   d 3 19 00 00  Length = 0 BitCount = 0 ID = 101
   0.610151 1  12              Rx   d 4 00 00 00 00  Length = 0 BitCount = 0 ID = 18
   0.610162 1  10              Rx   d 8 69 30 00 00 00 00 00 00  Length = 0 BitCount = 0 ID = 16
   0.610188 1  64              Rx   d 4 44 02 00 00  Length = 0 BitCount = 0 ID = 100
   0.629991 1  64              Rx   d 4 4C 02 00 00  Length = 0 BitCount = 0 ID = 100
   0.639991 1  64              Rx   d 4 54 02 00 00  Length = 0 BitCount = 0 ID = 100
   0.640026 1  11              Rx   d 8 01 3F F6 07 00 00 00 00  Length = 0 BitCount = 0 ID = 17
   0.649975 1  64              Rx   d 4 5C 02 00 00  Length = 0 BitCount = 0 ID = 100
   0.659977 1  64              Rx   d 4 64 02 00 00  Length = 0 BitCount = 0 ID = 100
   0.660010 1  12              Rx   d 4 00 00 00 00  Length = 0 BitCount = 0 ID = 18
   0.660144 1  66              Rx   d 1 02  Length = 0 BitCount = 0 ID = 102
   0.669992 1  11              Rx   d 8 F6 3F F9 0A 00 00 00 00  Length = 0 BitCount = 0 ID = 17
   0.670076 1  64              Rx   d 4 6C 02 00 00  Length = 0 BitCount = 0 ID = 100
   0.680000 1  64              Rx   d 4 74 02 00 00  Length = 0 BitCount = 0 ID = 100
   0.689982 1  64              Rx   d 4 7C 02 00 00  Length = 0 BitCount = 0 ID = 100
   0.690146 1  64              Rx   d 4 84 02 00 00  Length = 0 BitCount = 0 ID = 100
   0.690159 1  11              Rx   d 8 E5 40 CD 11 00 00 00 00  Length = 0 BitCount = 0 ID = 17
   0.709978 1  64              Rx   d 4 8C 02 00 00  Length = 0 BitCount = 0 ID = 100
   0.710013 1  10              Rx   d 8 3B 32 00 00 00 00 00 00  Length = 0 BitCount = 0 ID = 16
   0.710079 1  12              Rx   d 4 00 00 00 00  Length = 0 BitCount = 0 ID = 18
   0.710100 1  65              Rx   d 3 32 00 00  Length = 0 BitCount = 0 ID = 101
   0.720010 1  64              Rx   d 4 94 02 00 00  Length = 0 BitCount = 0 ID = 100
   0.729980 1  64              Rx   d 4 9C 02 00 00  Length = 0 BitCount = 0 ID = 100
   0.730013 1  11              Rx   d 8 CD 41 4D 22 00 00 00 00  Length = 0 BitCount = 0 ID = 17
   0.739981 1  64              Rx   d 4 A4 02 00 00  Length = 0 BitCount = 0 ID = 100
   0.749983 1  64              Rx   d 4 AC 02 00 00  Length = 0 BitCount = 0 ID = 100
   0.759997 1  64              Rx   d 4 B4 02 00 00  Length = 0 BitCount = 0 ID = 100
   0.760030 1  11              Rx   d 8 AF 42 20 1D 00 00 00 00  Length = 0 BitCount = 0 ID = 17
   0.760052 1  66              Rx   d 1 04  Length = 0 BitCount = 0 ID = 102
   0.760113 1  12              Rx   d 4 00 00 00 00  Length = 0 BitCount = 0 ID = 18
   0.769999 1  64              Rx   d 4 BC 02 00 00  Length = 0 BitCount = 0 ID = 100
   0.779998 1  64              Rx   d 4 C4 02 00 00  Length = 0 BitCount = 0 ID = 100
   0.789982 1  64              Rx   d 4 CC 02 00 00  Length = 0 BitCount = 0 ID = 100
   0.790003 1  11              Rx   d 8 8A 43 64 16 00 00 00 00  Length = 0 BitCount = 0 ID = 17
   0.799976 1  64              Rx   d 4 D4 02 00 00  Length = 0 BitCount = 0 ID = 100
   0.809974 1  64              Rx   d 4 DC 02 00 00  Length = 0 BitCount = 0 ID = 100
   0.810125 1  12              Rx   d 4 00 00 00 00  Length = 0 BitCount = 0 ID = 18
   0.810139 1  65              Rx   d 3 19 00 00  Length = 0 BitCount = 0 ID = 101
   0.810168 1  10              Rx   d 8 07 34 00 00 00 00 00 00  Length = 0 BitCount = 0 ID = 16
   0.819974 1  64              Rx   d 4 E4 02 00 00  Length = 0 BitCount = 0 ID = 100
   0.820007 1  11              Rx   d 8 5D 44 99 05 00 00 00 00  Length = 0 BitCount = 0 ID = 17
   0.829974 1  64              Rx   d 4 EC 02 00 00  Length = 0 BitCount = 0 ID = 100
   0.839975 1  64              Rx   d 4 F4 02 00 00  Length = 0 BitCount = 0 ID = 100
   0.849974 1  64              Rx   d 4 FC 02 00 00  Length = 0 BitCount = 0 ID = 100
   0.850006 1  11              Rx   d 8 29 45 D7 18 00 00 00 00  Length = 0 BitCount = 0 ID = 17
   0.860028 1  64              Rx   d 4 04 03 00 00  Length = 0 BitCount = 0 ID = 100
   0.860065 1  66              Rx   d 1 02  Length = 0 BitCount = 0 ID = 102
   0.860138 1  12              Rx   d 4 01 00 00 00  Length = 0 BitCount = 0 ID = 18
   0.860201 1  64              Rx   d 4 0C 03 00 00  Length = 0 BitCount = 0 ID = 100
   0.880033 1  64              Rx   d 4 14 03 00 00  Length = 0 BitCount = 0 ID = 100
   0.880170 1  11              Rx   d 8 EE 45 DD 2C 00 00 00 00  Length = 0 BitCount = 0 ID = 17
   0.889961 1  64              Rx   d 4 1C 03 00 00  Length = 0 BitCount = 0 ID = 100
   0.900008 1  64              Rx   d 4 24 03 00 00  Length = 0 BitCount = 0 ID = 100
   0.909943 1  64              Rx   d 4 2C 03 00 00  Length = 0 BitCount = 0 ID = 100
   0.909976 1  11              Rx   d 8 AA 46 F1 14 00 00 00 00  Length = 0 BitCount = 0 ID = 17
   0.910071 1  10              Rx   d 8 CB 35 00 00 00 00 00 00  Length = 0 BitCount = 0 ID = 16
   0.910101 1  12              Rx   d 4 00 00 00 00  Length = 0 BitCount = 0 ID = 18
   0.910113 1  65              Rx   d 3 01 00 00  Length = 0 BitCount = 0 ID = 101
   0.919950 1  64              Rx   d 4 34 03 00 00  Length = 0 BitCount = 0 ID = 100
   0.929950 1  64              Rx   d 4 3C 03 00 00  Length = 0 BitCount = 0 ID = 100
   0.939955 1  64              Rx   d 4 44 03 00 00  Length = 0 BitCount = 0 ID = 100
   0.940093 1  11              Rx   d 8 5F 47 F6 07 00 00 00 00  Length = 0 BitCount = 0 ID = 17
   0.940105 1  64              Rx   d 4 4C 03 00 00  Length = 0 BitCount = 0 ID = 100
   0.959949 1  64              Rx   d 4 54 03 00 00  Length = 0 BitCount = 0 ID = 100
   0.959982 1  66              Rx   d 1 04  Length = 0 BitCount = 0 ID = 102
   0.960053 1  12              Rx   d 4 00 00 00 00  Length = 0 BitCount = 0 ID = 18
   0.969947 1  64              Rx   d 4 5C 03 00 00  Length = 0 BitCount = 0 ID = 100
   0.969981 1  11              Rx   d 8 0B 48 F9 0A 00 00 00 00  Length = 0 BitCount = 0 ID = 17
   0.979953 1  64              Rx   d 4 64 03 00 00  Length = 0 BitCount = 0 ID = 100
   0.990010 1  64              Rx   d 4 6C 03 00 00  Length = 0 BitCount = 0 ID = 100
   0.999991 1  64              Rx   d 4 74 03 00 00  Length = 0 BitCount = 0 ID = 100
   1.000156 1  11              Rx   d 8 AF 48 CD 11 00 00 00 00  Length = 0 BitCount = 0 ID = 17
   1.009977 1  64              Rx   d 4 7C 03 00 00  Length = 0 BitCount = 0 ID = 100
   1.010014 1  12              Rx   d 4 00 00 00 00  Length = 0 BitCount = 0 ID = 18
   1.010037 1  65              Rx   d 3 19 00 00  Length = 0 BitCount = 0 ID = 101
   1.010107 1  10              Rx   d 8 86 37 00 00 00 00 00 00  Length = 0 BitCount = 0 ID = 16
   1.019975 1  64              Rx   d 4 64 00 00 00  Length = 0 BitCount = 0 ID = 100
   1.030073 1  64              Rx   d 4 6C 00 00 00  Length = 0 BitCount = 0 ID = 100
   1.030111 1  11              Rx   d 8 4B 49 4D 22 00 00 00 00  Length = 0 BitCount = 0 ID = 17
   1.040047 1  64              Rx   d 4 74 00 00 00  Length = 0 BitCount = 0 ID = 100
   1.050030 1  64              Rx   d 4 7C 00 00 00  Length = 0 BitCount = 0 ID = 100
   1.060044 1  64              Rx   d 4 84 00 00 00  Length = 0 BitCount = 0 ID = 100
   1.060181 1  11              Rx   d 8 DE 49 20 1D 00 00 00 00  Length = 0 BitCount = 0 ID = 17
   1.060194 1  66              Rx   d 1 02  Length = 0 BitCount = 0 ID = 102
   1.060223 1  12              Rx   d 4 00 00 00 00  Length = 0 BitCount = 0 ID = 18
   1.060283 1  64              Rx   d 4 8C 00 00 00  Length = 0 BitCount = 0 ID = 100
   1.080019 1  64              Rx   d 4 94 00 00 00  Length = 0 BitCount = 0 ID = 100
   1.089998 1  64              Rx   d 4 9C 00 00 00  Length = 0 BitCount = 0 ID = 100
   1.090034 1  11              Rx   d 8 68 4A 64 16 00 00 00 00  Length = 0 BitCount = 0 ID = 17
   1.100056 1  64              Rx   d 4 A4 00 00 00  Length = 0 BitCount = 0 ID = 100
   1.110002 1  64              Rx   d 4 AC 00 00 00  Length = 0 BitCount = 0 ID = 100
   1.110041 1  65              Rx   d 3 32 00 00  Length = 0 BitCount = 0 ID = 101
   1.110098 1  10              Rx   d 8 37 39 00 00 00 00 00 00  Length = 0 BitCount = 0 ID = 16
   1.110132 1  12              Rx   d 4 00 00 00 00  Length = 0 BitCount = 0 ID = 18
   1.110145 1  11              Rx   d 8 EA 4A 99 05 00 00 00 00  Length = 0 BitCount = 0 ID = 17
   1.110155 1  64              Rx   d 4 B4 00 00 00  Length = 0 BitCount = 0 ID = 100
   1.130015 1  64              Rx   d 4 BC 00 00 00  Length = 0 BitCount = 0 ID = 100
   1.140014 1  64              Rx   d 4 C4 00 00 00  Length = 0 BitCount = 0 ID = 100
   1.150012 1  64              Rx   d 4 CC 00 00 00  Length = 0 BitCount = 0 ID = 100
   1.150061 1  11              Rx   d 8 62 4B D7 18 00 00 00 00  Length = 0 BitCount = 0 ID = 17
   1.150160 1  64              Rx   d 4 D4 00 00 00  Length = 0 BitCount = 0 ID = 100
   1.150173 1  12              Rx   d 4 00 00 00 00  Length = 0 BitCount = 0 ID = 18
   1.150238 1  66              Rx   d 1 04  Length = 0 BitCount = 0 ID = 102
   1.169969 1  64              Rx   d 4 DC 00 00 00  Length = 0 BitCount = 0 ID = 100
   1.179968 1  64              Rx   d 4 E4 00 00 00  Length = 0 BitCount = 0 ID = 100
   1.180014 1  11              Rx   d 8 D1 4B DD 2C 00 00 00 00  Length = 0 BitCount = 0 ID = 17
   1.189955 1  64              Rx   d 4 EC 00 00 00  Length = 0 BitCount = 0 ID = 100
   1.200037 1  64              Rx   d 4 F4 00 00 00  Length = 0 BitCount = 0 ID = 100
   1.209998 1  64              Rx   d 4 FC 00 00 00  Length = 0 BitCount = 0 ID = 100
   1.210021 1  11              Rx   d 8 37 4C F1 14 00 00 00 00  Length = 0 BitCount = 0 ID = 17
   1.210151 1  65              Rx   d 3 19 00 00  Length = 0 BitCount = 0 ID = 101
   1.210196 1  12              Rx   d 4 00 00 00 00  Length = 0 BitCount = 0 ID = 18
   1.210251 1  10              Rx   d 8 DE 3A 00 00 00 00 00 00  Length = 0 BitCount = 0 ID = 16
   1.220057 1  64              Rx   d 4 04 01 00 00  Length = 0 BitCount = 0 ID = 100
   1.230061 1  64              Rx   d 4 0C 01 00 00  Length = 0 BitCount = 0 ID = 100
   1.240062 1  64              Rx   d 4 14 01 00 00  Length = 0 BitCount = 0 ID = 100
   1.240099 1  11              Rx   d 8 93 4C F6 07 00 00 00 00  Length = 0 BitCount = 0 ID = 17
   1.250061 1  64              Rx   d 4 1C 01 00 00  Length = 0 BitCount = 0 ID = 100
   1.260053 1  64              Rx   d 4 24 01 00 00  Length = 0 BitCount = 0 ID = 100
   1.260090 1  12              Rx   d 4 00 00 00 00  Length = 0 BitCount = 0 ID = 18
   1.260113 1  66              Rx   d 1 02  Length = 0 BitCount = 0 ID = 102
   1.270063 1  11              Rx   d 8 E6 4C F9 0A 00 00 00 00  Length = 0 BitCount = 0 ID = 17
   1.270179 1  64              Rx   d 4 2C 01 00 00  Length = 0 BitCount = 0 ID = 100
   1.270193 1  64              Rx   d 4 34 01 00 00  Length = 0 BitCount = 0 ID = 100
   1.289924 1  64              Rx   d 4 3C 01 00 00  Length = 0 BitCount = 0 ID = 100
   1.300009 1  64              Rx   d 4 44 01 00 00  Length = 0 BitCount = 0 ID = 100
   1.300037 1  11              Rx   d 8 2F 4D CD 11 00 00 00 00  Length = 0 BitCount = 0 ID = 17
   1.309979 1  64              Rx   d 4 4C 01 00 00  Length = 0 BitCount = 0 ID = 100
   1.310113 1  12              Rx   d 4 00 00 00 00  Length = 0 BitCount = 0 ID = 18
   1.310183 1  10              Rx   d 8 78 3C 00 00 00 00 00 00  Length = 0 BitCount = 0 ID = 16
   1.310217 1  65              Rx   d 3 01 00 00  Length = 0 BitCount = 0 ID = 101
   1.310249 1  64              Rx   d 4 54 01 00 00  Length = 0 BitCount = 0 ID = 100
   1.329968 1  64              Rx   d 4 5C 01 00 00  Length = 0 BitCount = 0 ID = 100
   1.330021 1  11              Rx   d 8 6F 4D 4D 22 00 00 00 00  Length = 0 BitCount = 0 ID = 17
   1.339962 1  64              Rx   d 4 64 01 00 00  Length = 0 BitCount = 0 ID = 100
   1.349962 1  64              Rx   d 4 6C 01 00 00  Length = 0 BitCount = 0 ID = 100
   1.359966 1  64              Rx   d 4 74 01 00 00  Length = 0 BitCount = 0 ID = 100
   1.359992 1  11              Rx   d 8 A5 4D 20 1D 00 00 00 00  Length = 0 BitCount = 0 ID = 17
   1.360009 1  66              Rx   d 1 04  Length = 0 BitCount = 0 ID = 102
   1.360074 1  12              Rx   d 4 00 00 00 00  Length = 0 BitCount = 0 ID = 18
   1.370015 1  64              Rx   d 4 7C 01 00 00  Length = 0 BitCount = 0 ID = 100
   1.380032 1  64              Rx   d 4 84 01 00 00  Length = 0 BitCount = 0 ID = 100
   1.390025 1  64              Rx   d 4 8C 01 00 00  Length = 0 BitCount = 0 ID = 100
   1.390058 1  11              Rx   d 8 D1 4D 64 16 00 00 00 00  Length = 0 BitCount = 0 ID = 17
   1.400054 1  64              Rx   d 4 94 01 00 00  Length = 0 BitCount = 0 ID = 100
   1.400094 1  64              Rx   d 4 9C 01 00 00  Length = 0 BitCount = 0 ID = 100
   1.400116 1  65              Rx   d 3 19 00 00  Length = 0 BitCount = 0 ID = 101
   1.400176 1  10              Rx   d 8 06 3E 00 00 00 00 00 00  Length = 0 BitCount = 0 ID = 16
   1.400209 1  12              Rx   d 4 01 00 00 00  Length = 0 BitCount = 0 ID = 18
   1.420035 1  11              Rx   d 8 F4 4D 99 05 00 00 00 00  Length = 0 BitCount = 0 ID = 17
   1.420068 1  64              Rx   d 4 A4 01 00 00  Length = 0 BitCount = 0 ID = 100
   1.430012 1  64              Rx   d 4 AC 01 00 00  Length = 0 BitCount = 0 ID = 100
   1.439963 1  64              Rx   d 4 B4 01 00 00  Length = 0 BitCount = 0 ID = 100
   1.449976 1  64              Rx   d 4 BC 01 00 00  Length = 0 BitCount = 0 ID = 100
   1.450009 1  11              Rx   d 8 0C 4E D7 18 00 00 00 00  Length = 0 BitCount = 0 ID = 17
   1.459963 1  64              Rx   d 4 C4 01 00 00  Length = 0 BitCount = 0 ID = 100
   1.459986 1  12              Rx   d 4 00 00 00 00  Length = 0 BitCount = 0 ID = 18
   1.460057 1  66              Rx   d 1 02  Length = 0 BitCount = 0 ID = 102
   1.469973 1  64              Rx   d 4 CC 01 00 00  Length = 0 BitCount = 0 ID = 100
   1.480036 1  64              Rx   d 4 D4 01 00 00  Length = 0 BitCount = 0 ID = 100
   1.480071 1  11              Rx   d 8 1B 4E DD 2C 00 00 00 00  Length = 0 BitCount = 0 ID = 17
   1.489976 1  64              Rx   d 4 DC 01 00 00  Length = 0 BitCount = 0 ID = 100
   1.500035 1  64              Rx   d 4 E4 01 00 00  Length = 0 BitCount = 0 ID = 100
   1.509978 1  64              Rx   d 4 EC 01 00 00  Length = 0 BitCount = 0 ID = 100
   1.510010 1  11              Rx   d 8 20 4E F1 14 00 00 00 00  Length = 0 BitCount = 0 ID = 17
   1.510100 1  65              Rx   d 3 32 00 00  Length = 0 BitCount = 0 ID = 101
   1.510131 1  12              Rx   d 4 00 00 00 00  Length = 0 BitCount = 0 ID = 18
   1.510142 1  10              Rx   d 8 86 3F 00 00 00 00 00 00  Length = 0 BitCount = 0 ID = 16
   1.519982 1  64              Rx   d 4 F4 01 00 00  Length = 0 BitCount = 0 ID = 100
   1.530039 1  64              Rx   d 4 FC 01 00 00  Length = 0 BitCount = 0 ID = 100
   1.540022 1  64              Rx   d 4 04 02 00 00  Length = 0 BitCount = 0 ID = 100
   1.540051 1  11              Rx   d 8 1B 4E F6 07 00 00 00 00  Length = 0 BitCount = 0 ID = 17
   1.550046 1  64              Rx   d 4 0C 02 00 00  Length = 0 BitCount = 0 ID = 100
   1.560021 1  64              Rx   d 4 14 02 00 00  Length = 0 BitCount = 0 ID = 100
   1.560057 1  12              Rx   d 4 00 01 00 00  Length = 0 BitCount = 0 ID = 18
   1.560181 1  66              Rx   d 1 04  Length = 0 BitCount = 0 ID = 102
   1.570020 1  11              Rx   d 8 0C 4E F9 0A 00 00 00 00  Length = 0 BitCount = 0 ID = 17
   1.570138 1  64              Rx   d 4 1C 02 00 00  Length = 0 BitCount = 0 ID = 100
   1.580022 1  64              Rx   d 4 24 02 00 00  Length = 0 BitCount = 0 ID = 100
   1.590043 1  64              Rx   d 4 2C 02 00 00  Length = 0 BitCount = 0 ID = 100
   1.600024 1  64              Rx   d 4 34 02 00 00  Length = 0 BitCount = 0 ID = 100
   1.600055 1  11              Rx   d 8 F4 4D CD 11 00 00 00 00  Length = 0 BitCount = 0 ID = 17
   1.610019 1  64              Rx   d 4 3C 02 00 00  Length = 0 BitCount = 0 ID = 100
   1.610179 1  12              Rx   d 4 00 01 00 00  Length = 0 BitCount = 0 ID = 18
   1.610191 1  10              Rx   d 8 F7 40 00 00 00 00 00 00  Length = 0 BitCount = 0 ID = 16
   1.610217 1  65              Rx   d 3 19 00 00  Length = 0 BitCount = 0 ID = 101
   1.620027 1  64              Rx   d 4 44 02 00 00  Length = 0 BitCount = 0 ID = 100
   1.630024 1  64              Rx   d 4 4C 02 00 00  Length = 0 BitCount = 0 ID = 100
   1.630055 1  11              Rx   d 8 D1 4D 4D 22 00 00 00 00  Length = 0 BitCount = 0 ID = 17
   1.640032 1  64              Rx   d 4 54 02 00 00  Length = 0 BitCount = 0 ID = 100
   1.650055 1  64              Rx   d 4 5C 02 00 00  Length = 0 BitCount = 0 ID = 100
   1.650094 1  64              Rx   d 4 64 02 00 00  Length = 0 BitCount = 0 ID = 100
   1.650119 1  11              Rx   d 8 A5 4D 20 1D 00 00 00 00  Length = 0 BitCount = 0 ID = 17
   1.650135 1  66              Rx   d 1 02  Length = 0 BitCount = 0 ID = 102
   1.650190 1  12              Rx   d 4 00 01 00 00  Length = 0 BitCount = 0 ID = 18
   1.670103 1  64              Rx   d 4 6C 02 00 00  Length = 0 BitCount = 0 ID = 100
   1.680104 1  64              Rx   d 4 74 02 00 00  Length = 0 BitCount = 0 ID = 100
   1.690059 1  64              Rx   d 4 7C 02 00 00  Length = 0 BitCount = 0 ID = 100
   1.690097 1  11              Rx   d 8 6F 4D 64 16 00 00 00 00  Length = 0 BitCount = 0 ID = 17
   1.690212 1  64              Rx   d 4 84 02 00 00  Length = 0 BitCount = 0 ID = 100
   1.710033 1  64              Rx   d 4 8C 02 00 00  Length = 0 BitCount = 0 ID = 100
   1.710070 1  65              Rx   d 3 01 00 00  Length = 0 BitCount = 0 ID = 101
   1.710139 1  10              Rx   d 8 59 42 00 00 00 00 00 00  Length = 0 BitCount = 0 ID = 16
   1.710189 1  12              Rx   d 4 00 01 00 00  Length = 0 BitCount = 0 ID = 18
   1.720025 1  11              Rx   d 8 2F 4D 99 05 00 00 00 00  Length = 0 BitCount = 0 ID = 17
   1.720057 1  64              Rx   d 4 94 02 00 00  Length = 0 BitCount = 0 ID = 100
   1.730027 1  64              Rx   d 4 9C 02 00 00  Length = 0 BitCount = 0 ID = 100
   1.730186 1  64              Rx   d 4 A4 02 00 00  Length = 0 BitCount = 0 ID = 100
   1.750028 1  64              Rx   d 4 AC 02 00 00  Length = 0 BitCount = 0 ID = 100
   1.750060 1  11              Rx   d 8 E6 4C D7 18 00 00 00 00  Length = 0 BitCount = 0 ID = 17
   1.760049 1  64              Rx   d 4 B4 02 00 00  Length = 0 BitCount = 0 ID = 100
   1.760080 1  12              Rx   d 4 00 01 00 00  Length = 0 BitCount = 0 ID = 18
   1.760095 1  66              Rx   d 1 04  Length = 0 BitCount = 0 ID = 102
   1.770032 1  64              Rx   d 4 BC 02 00 00  Length = 0 BitCount = 0 ID = 100
   1.780053 1  64              Rx   d 4 C4 02 00 00  Length = 0 BitCount = 0 ID = 100
   1.780087 1  11              Rx   d 8 93 4C DD 2C 00 00 00 00  Length = 0 BitCount = 0 ID = 17
   1.790032 1  64              Rx   d 4 CC 02 00 00  Length = 0 BitCount = 0 ID = 100
   1.800013 1  64              Rx   d 4 D4 02 00 00  Length = 0 BitCount = 0 ID = 100
   1.810033 1  64              Rx   d 4 DC 02 00 00  Length = 0 BitCount = 0 ID = 100
   1.810068 1  11              Rx   d 8 37 4C F1 14 00 00 00 00  Length = 0 BitCount = 0 ID = 17
   1.810178 1  65              Rx   d 3 19 00 00  Length = 0 BitCount = 0 ID = 101
   1.810211 1  12              Rx   d 4 00 01 00 00  Length = 0 BitCount = 0 ID = 18
   1.810263 1  10              Rx   d 8 AB 43 00 00 00 00 00 00  Length = 0 BitCount = 0 ID = 16
   1.810292 1  64              Rx   d 4 E4 02 00 00  Length = 0 BitCount = 0 ID = 100
   1.830028 1  64              Rx   d 4 EC 02 00 00  Length = 0 BitCount = 0 ID = 100
   1.840037 1  64              Rx   d 4 F4 02 00 00  Length = 0 BitCount = 0 ID = 100
   1.840069 1  11              Rx   d 8 D1 4B F6 07 00 00 00 00  Length = 0 BitCount = 0 ID = 17
   1.850034 1  64              Rx   d 4 FC 02 00 00  Length = 0 BitCount = 0 ID = 100
   1.860036 1  64              Rx   d 4 04 03 00 00  Length = 0 BitCount = 0 ID = 100
   1.860070 1  12              Rx   d 4 00 01 00 00  Length = 0 BitCount = 0 ID = 18
   1.860091 1  66              Rx   d 1 02  Length = 0 BitCount = 0 ID = 102
   1.870040 1  11              Rx   d 8 62 4B F9 0A 00 00 00 00  Length = 0 BitCount = 0 ID = 17
   1.870173 1  64              Rx   d 4 0C 03 00 00  Length = 0 BitCount = 0 ID = 100
   1.880039 1  64              Rx   d 4 14 03 00 00  Length = 0 BitCount = 0 ID = 100
   1.890037 1  64              Rx   d 4 1C 03 00 00  Length = 0 BitCount = 0 ID = 100
   1.900074 1  64              Rx   d 4 24 03 00 00  Length = 0 BitCount = 0 ID = 100
   1.900111 1  11              Rx   d 8 EA 4A CD 11 00 00 00 00  Length = 0 BitCount = 0 ID = 17
   1.900134 1  64              Rx   d 4 2C 03 00 00  Length = 0 BitCount = 0 ID = 100
   1.900151 1  12              Rx   d 4 00 01 00 00  Length = 0 BitCount = 0 ID = 18
   1.900246 1  10              Rx   d 8 EB 44 00 00 00 00 00 00  Length = 0 BitCount = 0 ID = 16
   1.900276 1  65              Rx   d 3 32 00 00  Length = 0 BitCount = 0 ID = 101
   1.920089 1  64              Rx   d 4 34 03 00 00  Length = 0 BitCount = 0 ID = 100
   1.930090 1  64              Rx   d 4 3C 03 00 00  Length = 0 BitCount = 0 ID = 100
   1.930127 1  11              Rx   d 8 68 4A 4D 22 00 00 00 00  Length = 0 BitCount = 0 ID = 17
   1.940093 1  64              Rx   d 4 44 03 00 00  Length = 0 BitCount = 0 ID = 100
   1.940132 1  64              Rx   d 4 4C 03 00 00  Length = 0 BitCount = 0 ID = 100
   1.960058 1  64              Rx   d 4 54 03 00 00  Length = 0 BitCount = 0 ID = 100
   1.960096 1  11              Rx   d 8 DE 49 20 1D 00 00 00 00  Length = 0 BitCount = 0 ID = 17
   1.960118 1  66              Rx   d 1 04  Length = 0 BitCount = 0 ID = 102
   1.960187 1  12              Rx   d 4 01 01 00 00  Length = 0 BitCount = 0 ID = 18
   1.970038 1  64              Rx   d 4 5C 03 00 00  Length = 0 BitCount = 0 ID = 100
   1.980044 1  64              Rx   d 4 64 03 00 00  Length = 0 BitCount = 0 ID = 100
   1.990002 1  64              Rx   d 4 6C 03 00 00  Length = 0 BitCount = 0 ID = 100
   1.990149 1  11              Rx   d 8 4B 49 64 16 00 00 00 00  Length = 0 BitCount = 0 ID = 17
   2.000000 1  64              Rx   d 4 74 03 00 00  Length = 0 BitCount = 0 ID = 100
   2.010062 1  64              Rx   d 4 7C 03 00 00  Length = 0 BitCount = 0 ID = 100
   2.010100 1  65              Rx   d 3 19 00 00  Length = 0 BitCount = 0 ID = 101
   2.010143 1  10              Rx   d 8 1A 46 00 00 00 00 00 00  Length = 0 BitCount = 0 ID = 16
   2.010182 1  12              Rx   d 4 00 01 00 00  Length = 0 BitCount = 0 ID = 18
   2.020003 1  64              Rx   d 4 64 00 00 00  Length = 0 BitCount = 0 ID = 100
   2.020035 1  11              Rx   d 8 AF 48 99 05 00 00 00 00  Length = 0 BitCount = 0 ID = 17
   2.030002 1  64              Rx   d 4 6C 00 00 00  Length = 0 BitCount = 0 ID = 100
   2.040047 1  64              Rx   d 4 74 00 00 00  Length = 0 BitCount = 0 ID = 100
   2.050003 1  64              Rx   d 4 7C 00 00 00  Length = 0 BitCount = 0 ID = 100
   2.050137 1  11              Rx   d 8 0B 48 D7 18 00 00 00 00  Length = 0 BitCount = 0 ID = 17
   2.060035 1  64              Rx   d 4 84 00 00 00  Length = 0 BitCount = 0 ID = 100
   2.060072 1  12              Rx   d 4 00 01 00 00  Length = 0 BitCount = 0 ID = 18
   2.060166 1  66              Rx   d 1 02  Length = 0 BitCount = 0 ID = 102
   2.070114 1  64              Rx   d 4 8C 00 00 00  Length = 0 BitCount = 0 ID = 100
   2.080034 1  64              Rx   d 4 94 00 00 00  Length = 0 BitCount = 0 ID = 100
   2.080071 1  11              Rx   d 8 5F 47 DD 2C 00 00 00 00  Length = 0 BitCount = 0 ID = 17
   2.090050 1  64              Rx   d 4 9C 00 00 00  Length = 0 BitCount = 0 ID = 100
   2.100064 1  64              Rx   d 4 A4 00 00 00  Length = 0 BitCount = 0 ID = 100
   2.110044 1  64              Rx   d 4 AC 00 00 00  Length = 0 BitCount = 0 ID = 100
   2.110208 1  11              Rx   d 8 AA 46 F1 14 00 00 00 00  Length = 0 BitCount = 0 ID = 17
   2.110260 1  10              Rx   d 8 36 47 00 00 00 00 00 00  Length = 0 BitCount = 0 ID = 16
   2.110289 1  65              Rx   d 3 01 00 00  Length = 0 BitCount = 0 ID = 101
   2.110316 1  12              Rx   d 4 00 01 00 00  Length = 0 BitCount = 0 ID = 18
   2.110327 1  64              Rx   d 4 B4 00 00 00  Length = 0 BitCount = 0 ID = 100
   2.130053 1  64              Rx   d 4 BC 00 00 00  Length = 0 BitCount = 0 ID = 100
   2.140028 1  64              Rx   d 4 C4 00 00 00  Length = 0 BitCount = 0 ID = 100
   2.140060 1  11              Rx   d 8 EE 45 F6 07 00 00 00 00  Length = 0 BitCount = 0 ID = 17
   2.150070 1  64              Rx   d 4 CC 00 00 00  Length = 0 BitCount = 0 ID = 100
   2.150102 1  64              Rx   d 4 D4 00 00 00  Length = 0 BitCount = 0 ID = 100
   2.150125 1  12              Rx   d 4 00 01 00 00  Length = 0 BitCount = 0 ID = 18
   2.150231 1  66              Rx   d 1 04  Length = 0 BitCount = 0 ID = 102
   2.170064 1  64              Rx   d 4 DC 00 00 00  Length = 0 BitCount = 0 ID = 100
   2.170211 1  11              Rx   d 8 29 45 F9 0A 00 00 00 00  Length = 0 BitCount = 0 ID = 17
   2.180053 1  64              Rx   d 4 E4 00 00 00  Length = 0 BitCount = 0 ID = 100
   2.190065 1  64              Rx   d 4 EC 00 00 00  Length = 0 BitCount = 0 ID = 100
   2.200058 1  64              Rx   d 4 F4 00 00 00  Length = 0 BitCount = 0 ID = 100
   2.200095 1  11              Rx   d 8 5D 44 CD 11 00 00 00 00  Length = 0 BitCount = 0 ID = 17
   2.210053 1  64              Rx   d 4 FC 00 00 00  Length = 0 BitCount = 0 ID = 100
   2.210089 1  65              Rx   d 3 19 00 00  Length = 0 BitCount = 0 ID = 101
   2.210158 1  12              Rx   d 4 00 01 00 00  Length = 0 BitCount = 0 ID = 18
   2.210227 1  10              Rx   d 8 3F 48 00 00 00 00 00 00  Length = 0 BitCount = 0 ID = 16
   2.220056 1  64              Rx   d 4 04 01 00 00  Length = 0 BitCount = 0 ID = 100
   2.230054 1  64              Rx   d 4 0C 01 00 00  Length = 0 BitCount = 0 ID = 100
   2.230215 1  11              Rx   d 8 8A 43 4D 22 00 00 00 00  Length = 0 BitCount = 0 ID = 17
   2.230267 1  64              Rx   d 4 14 01 00 00  Length = 0 BitCount = 0 ID = 100
   2.250051 1  64              Rx   d 4 1C 01 00 00  Length = 0 BitCount = 0 ID = 100
   2.260053 1  64              Rx   d 4 24 01 00 00  Length = 0 BitCount = 0 ID = 100
   2.260089 1  11              Rx   d 8 AF 42 20 1D 00 00 00 00  Length = 0 BitCount = 0 ID = 17
   2.260111 1  12              Rx   d 4 00 01 00 00  Length = 0 BitCount = 0 ID = 18
   2.260127 1  66              Rx   d 1 02  Length = 0 BitCount = 0 ID = 102
   2.270057 1  64              Rx   d 4 2C 01 00 00  Length = 0 BitCount = 0 ID = 100
   2.280069 1  64              Rx   d 4 34 01 00 00  Length = 0 BitCount = 0 ID = 100
   2.290077 1  64              Rx   d 4 3C 01 00 00  Length = 0 BitCount = 0 ID = 100
   2.290234 1  11              Rx   d 8 CD 41 64 16 00 00 00 00  Length = 0 BitCount = 0 ID = 17
   2.300073 1  64              Rx   d 4 44 01 00 00  Length = 0 BitCount = 0 ID = 100
   2.310053 1  64              Rx   d 4 4C 01 00 00  Length = 0 BitCount = 0 ID = 100
   2.310096 1  10              Rx   d 8 34 49 00 00 00 00 00 00  Length = 0 BitCount = 0 ID = 16
   2.310167 1  12              Rx   d 4 00 01 00 00  Length = 0 BitCount = 0 ID = 18
   2.310239 1  65              Rx   d 3 32 00 00  Length = 0 BitCount = 0 ID = 101
   2.310268 1  64              Rx   d 4 54 01 00 00  Length = 0 BitCount = 0 ID = 100
   2.310280 1  11              Rx   d 8 E5 40 99 05 00 00 00 00  Length = 0 BitCount = 0 ID = 17
   2.330060 1  64              Rx   d 4 5C 01 00 00  Length = 0 BitCount = 0 ID = 100
   2.340074 1  64              Rx   d 4 64 01 00 00  Length = 0 BitCount = 0 ID = 100
   2.350083 1  64              Rx   d 4 6C 01 00 00  Length = 0 BitCount = 0 ID = 100
   2.350234 1  11              Rx   d 8 F6 3F D7 18 00 00 00 00  Length = 0 BitCount = 0 ID = 17
   2.350288 1  64              Rx   d 4 74 01 00 00  Length = 0 BitCount = 0 ID = 100
   2.350300 1  66              Rx   d 1 04  Length = 0 BitCount = 0 ID = 102
   2.350330 1  12              Rx   d 4 00 01 00 00  Length = 0 BitCount = 0 ID = 18
   2.370081 1  64              Rx   d 4 7C 01 00 00  Length = 0 BitCount = 0 ID = 100
   2.380078 1  64              Rx   d 4 84 01 00 00  Length = 0 BitCount = 0 ID = 100
   2.380119 1  11              Rx   d 8 01 3F DD 2C 00 00 00 00  Length = 0 BitCount = 0 ID = 17
   2.390063 1  64              Rx   d 4 8C 01 00 00  Length = 0 BitCount = 0 ID = 100
   2.400062 1  64              Rx   d 4 94 01 00 00  Length = 0 BitCount = 0 ID = 100
   2.400097 1  64              Rx   d 4 9C 01 00 00  Length = 0 BitCount = 0 ID = 100
   2.400120 1  11              Rx   d 8 06 3E F1 14 00 00 00 00  Length = 0 BitCount = 0 ID = 17
   2.400136 1  12              Rx   d 4 00 01 00 00  Length = 0 BitCount = 0 ID = 18
   2.400236 1  65              Rx   d 3 19 00 00  Length = 0 BitCount = 0 ID = 101
   2.400266 1  10              Rx   d 8 14 4A 00 00 00 00 00 00  Length = 0 BitCount = 0 ID = 16
   2.420096 1  64              Rx   d 4 A4 01 00 00  Length = 0 BitCount = 0 ID = 100
   2.430063 1  64              Rx   d 4 AC 01 00 00  Length = 0 BitCount = 0 ID = 100
   2.440083 1  64              Rx   d 4 B4 01 00 00  Length = 0 BitCount = 0 ID = 100
   2.440116 1  11              Rx   d 8 05 3D F6 07 00 00 00 00  Length = 0 BitCount = 0 ID = 17
   2.440230 1  64              Rx   d 4 BC 01 00 00  Length = 0 BitCount = 0 ID = 100
   2.460066 1  64              Rx   d 4 C4 01 00 00  Length = 0 BitCount = 0 ID = 100
   2.460101 1  66              Rx   d 1 02  Length = 0 BitCount = 0 ID = 102
   2.460172 1  12              Rx   d 4 00 01 00 00  Length = 0 BitCount = 0 ID = 18
   2.470079 1  11              Rx   d 8 FE 3B F9 0A 00 00 00 00  Length = 0 BitCount = 0 ID = 17
   2.470111 1  64              Rx   d 4 CC 01 00 00  Length = 0 BitCount = 0 ID = 100
   2.480072 1  64              Rx   d 4 D4 01 00 00  Length = 0 BitCount = 0 ID = 100
   2.480232 1  64              Rx   d 4 DC 01 00 00  Length = 0 BitCount = 0 ID = 100
   2.500067 1  64              Rx   d 4 E4 01 00 00  Length = 0 BitCount = 0 ID = 100
   2.500100 1  11              Rx   d 8 F2 3A CD 11 00 00 00 00  Length = 0 BitCount = 0 ID = 17
   2.510082 1  64              Rx   d 4 EC 01 00 00  Length = 0 BitCount = 0 ID = 100
   2.510117 1  10              Rx   d 8 E0 4A 00 00 00 00 00 00  Length = 0 BitCount = 0 ID = 16
   2.510181 1  65              Rx   d 3 01 00 00  Length = 0 BitCount = 0 ID = 101
   2.510237 1  12              Rx   d 4 01 01 00 00  Length = 0 BitCount = 0 ID = 18
   2.520174 1  64              Rx   d 4 F4 01 00 00  Length = 0 BitCount = 0 ID = 100
   2.520211 1  64              Rx   d 4 FC 01 00 00  Length = 0 BitCount = 0 ID = 100
   2.520234 1  11              Rx   d 8 E2 39 4D 22 00 00 00 00  Length = 0 BitCount = 0 ID = 17
   2.540030 1  64              Rx   d 4 04 02 00 00  Length = 0 BitCount = 0 ID = 100
   2.550072 1  64              Rx   d 4 0C 02 00 00  Length = 0 BitCount = 0 ID = 100
   2.560027 1  64              Rx   d 4 14 02 00 00  Length = 0 BitCount = 0 ID = 100
   2.560060 1  11              Rx   d 8 CC 38 20 1D 00 00 00 00  Length = 0 BitCount = 0 ID = 17
   2.560141 1  12              Rx   d 4 00 01 00 00  Length = 0 BitCount = 0 ID = 18
   2.560196 1  66              Rx   d 1 04  Length = 0 BitCount = 0 ID = 102
   2.560227 1  64              Rx   d 4 1C 02 00 00  Length = 0 BitCount = 0 ID = 100
   2.580070 1  64              Rx   d 4 24 02 00 00  Length = 0 BitCount = 0 ID = 100
   2.590075 1  64              Rx   d 4 2C 02 00 00  Length = 0 BitCount = 0 ID = 100
   2.590111 1  11              Rx   d 8 B2 37 64 16 00 00 00 00  Length = 0 BitCount = 0 ID = 17
   2.600069 1  64              Rx   d 4 34 02 00 00  Length = 0 BitCount = 0 ID = 100
   2.610070 1  64              Rx   d 4 3C 02 00 00  Length = 0 BitCount = 0 ID = 100
   2.610104 1  65              Rx   d 3 19 00 00  Length = 0 BitCount = 0 ID = 101
   2.610168 1  12              Rx   d 4 00 01 00 00  Length = 0 BitCount = 0 ID = 18
   2.610189 1  10              Rx   d 8 96 4B 00 00 00 00 00 00  Length = 0 BitCount = 0 ID = 16
   2.620075 1  64              Rx   d 4 44 02 00 00  Length = 0 BitCount = 0 ID = 100
   2.620108 1  11              Rx   d 8 93 36 99 05 00 00 00 00  Length = 0 BitCount = 0 ID = 17
   2.630077 1  64              Rx   d 4 4C 02 00 00  Length = 0 BitCount = 0 ID = 100
   2.640065 1  64              Rx   d 4 54 02 00 00  Length = 0 BitCount = 0 ID = 100
   2.650071 1  64              Rx   d 4 5C 02 00 00  Length = 0 BitCount = 0 ID = 100
   2.650103 1  11              Rx   d 8 71 35 D7 18 00 00 00 00  Length = 0 BitCount = 0 ID = 17
   2.650124 1  64              Rx   d 4 64 02 00 00  Length = 0 BitCount = 0 ID = 100
   2.650141 1  12              Rx   d 4 00 01 00 00  Length = 0 BitCount = 0 ID = 18
   2.650240 1  66              Rx   d 1 02  Length = 0 BitCount = 0 ID = 102
   2.670078 1  64              Rx   d 4 6C 02 00 00  Length = 0 BitCount = 0 ID = 100
   2.680091 1  64              Rx   d 4 74 02 00 00  Length = 0 BitCount = 0 ID = 100
   2.680126 1  11              Rx   d 8 4B 34 DD 2C 00 00 00 00  Length = 0 BitCount = 0 ID = 17
   2.690092 1  64              Rx   d 4 7C 02 00 00  Length = 0 BitCount = 0 ID = 100
   2.690126 1  64              Rx   d 4 84 02 00 00  Length = 0 BitCount = 0 ID = 100
   2.710092 1  64              Rx   d 4 8C 02 00 00  Length = 0 BitCount = 0 ID = 100
   2.710128 1  11              Rx   d 8 22 33 F1 14 00 00 00 00  Length = 0 BitCount = 0 ID = 17
   2.710154 1  10              Rx   d 8 37 4C 00 00 00 00 00 00  Length = 0 BitCount = 0 ID = 16
   2.710214 1  65              Rx   d 3 32 00 00  Length = 0 BitCount = 0 ID = 101
   2.710259 1  12              Rx   d 4 00 01 00 00  Length = 0 BitCount = 0 ID = 18
   2.720071 1  64              Rx   d 4 94 02 00 00  Length = 0 BitCount = 0 ID = 100
   2.730075 1  64              Rx   d 4 9C 02 00 00  Length = 0 BitCount = 0 ID = 100
   2.730236 1  64              Rx   d 4 A4 02 00 00  Length = 0 BitCount = 0 ID = 100
   2.730256 1  11              Rx   d 8 F6 31 F6 07 00 00 00 00  Length = 0 BitCount = 0 ID = 17
   2.750078 1  64              Rx   d 4 AC 02 00 00  Length = 0 BitCount = 0 ID = 100
   2.760095 1  64              Rx   d 4 B4 02 00 00  Length = 0 BitCount = 0 ID = 100
   2.760128 1  12              Rx   d 4 00 01 00 00  Length = 0 BitCount = 0 ID = 18
   2.760150 1  66              Rx   d 1 04  Length = 0 BitCount = 0 ID = 102
   2.770101 1  64              Rx   d 4 BC 02 00 00  Length = 0 BitCount = 0 ID = 100
   2.770139 1  11              Rx   d 8 C7 30 F9 0A 00 00 00 00  Length = 0 BitCount = 0 ID = 17
   2.770253 1  64              Rx   d 4 C4 02 00 00  Length = 0 BitCount = 0 ID = 100
   2.790118 1  64              Rx   d 4 CC 02 00 00  Length = 0 BitCount = 0 ID = 100
   2.800075 1  64              Rx   d 4 D4 02 00 00  Length = 0 BitCount = 0 ID = 100
   2.800113 1  11              Rx   d 8 95 2F CD 11 00 00 00 00  Length = 0 BitCount = 0 ID = 17
   2.810084 1  64              Rx   d 4 DC 02 00 00  Length = 0 BitCount = 0 ID = 100
   2.810116 1  65              Rx   d 3 19 00 00  Length = 0 BitCount = 0 ID = 101
   2.810185 1  12              Rx   d 4 00 01 00 00  Length = 0 BitCount = 0 ID = 18
   2.810272 1  10              Rx   d 8 C1 4C 00 00 00 00 00 00  Length = 0 BitCount = 0 ID = 16
   2.810301 1  64              Rx   d 4 E4 02 00 00  Length = 0 BitCount = 0 ID = 100
   2.830087 1  64              Rx   d 4 EC 02 00 00  Length = 0 BitCount = 0 ID = 100
   2.830122 1  11              Rx   d 8 62 2E 4D 22 00 00 00 00  Length = 0 BitCount = 0 ID = 17
   2.840105 1  64              Rx   d 4 F4 02 00 00  Length = 0 BitCount = 0 ID = 100
   2.850098 1  64              Rx   d 4 FC 02 00 00  Length = 0 BitCount = 0 ID = 100
   2.860076 1  64              Rx   d 4 04 03 00 00  Length = 0 BitCount = 0 ID = 100
   2.860114 1  11              Rx   d 8 2C 2D 20 1D 00 00 00 00  Length = 0 BitCount = 0 ID = 17
   2.860136 1  12              Rx   d 4 00 01 00 00  Length = 0 BitCount = 0 ID = 18
   2.860153 1  66              Rx   d 1 02  Length = 0 BitCount = 0 ID = 102
   2.870100 1  64              Rx   d 4 0C 03 00 00  Length = 0 BitCount = 0 ID = 100
   2.880131 1  64              Rx   d 4 14 03 00 00  Length = 0 BitCount = 0 ID = 100
   2.890145 1  64              Rx   d 4 1C 03 00 00  Length = 0 BitCount = 0 ID = 100
   2.890182 1  11              Rx   d 8 F5 2B 64 16 00 00 00 00  Length = 0 BitCount = 0 ID = 17
   2.900088 1  64              Rx   d 4 24 03 00 00  Length = 0 BitCount = 0 ID = 100
   2.900125 1  64              Rx   d 4 2C 03 00 00  Length = 0 BitCount = 0 ID = 100
   2.900150 1  10              Rx   d 8 34 4D 00 00 00 00 00 00  Length = 0 BitCount = 0 ID = 16
   2.900213 1  12              Rx   d 4 00 01 00 00  Length = 0 BitCount = 0 ID = 18
   2.900283 1  65              Rx   d 3 01 00 00  Length = 0 BitCount = 0 ID = 101
   2.920086 1  64              Rx   d 4 34 03 00 00  Length = 0 BitCount = 0 ID = 100
   2.920229 1  11              Rx   d 8 BD 2A 99 05 00 00 00 00  Length = 0 BitCount = 0 ID = 17
   2.930105 1  64              Rx   d 4 3C 03 00 00  Length = 0 BitCount = 0 ID = 100
   2.940094 1  64              Rx   d 4 44 03 00 00  Length = 0 BitCount = 0 ID = 100
   2.940128 1  64              Rx   d 4 4C 03 00 00  Length = 0 BitCount = 0 ID = 100
   2.940151 1  11              Rx   d 8 84 29 D7 18 00 00 00 00  Length = 0 BitCount = 0 ID = 17
   2.960131 1  64              Rx   d 4 54 03 00 00  Length = 0 BitCount = 0 ID = 100
   2.960153 1  66              Rx   d 1 04  Length = 0 BitCount = 0 ID = 102
   2.960199 1  12              Rx   d 4 00 01 00 00  Length = 0 BitCount = 0 ID = 18
   2.970084 1  64              Rx   d 4 5C 03 00 00  Length = 0 BitCount = 0 ID = 100
   2.980091 1  64              Rx   d 4 64 03 00 00  Length = 0 BitCount = 0 ID = 100
   2.980263 1  11              Rx   d 8 4A 28 DD 2C 00 00 00 00  Length = 0 BitCount = 0 ID = 17
   2.980317 1  64              Rx   d 4 6C 03 00 00  Length = 0 BitCount = 0 ID = 100
   3.000106 1  64              Rx   d 4 74 03 00 00  Length = 0 BitCount = 0 ID = 100
   3.010158 1  64              Rx   d 4 7C 03 00 00  Length = 0 BitCount = 0 ID = 100
   3.010195 1  11              Rx   d 8 10 27 F1 14 00 00 00 00  Length = 0 BitCount = 0 ID = 17
   3.010218 1  12              Rx   d 4 00 01 00 00  Length = 0 BitCount = 0 ID = 18
   3.010234 1  65              Rx   d 3 19 00 00  Length = 0 BitCount = 0 ID = 101
   3.010278 1  10              Rx   d 8 91 4D 00 00 00 00 00 00  Length = 0 BitCount = 0 ID = 16
   3.020129 1  64              Rx   d 4 64 00 00 00  Length = 0 BitCount = 0 ID = 100
   3.030126 1  64              Rx   d 4 6C 00 00 00  Length = 0 BitCount = 0 ID = 100
   3.040128 1  64              Rx   d 4 74 00 00 00  Length = 0 BitCount = 0 ID = 100
   3.040267 1  11              Rx   d 8 D6 25 F6 07 00 00 00 00  Length = 0 BitCount = 0 ID = 17
   3.050098 1  64              Rx   d 4 7C 00 00 00  Length = 0 BitCount = 0 ID = 100
   3.060086 1  64              Rx   d 4 84 00 00 00  Length = 0 BitCount = 0 ID = 100
   3.060119 1  66              Rx   d 1 02  Length = 0 BitCount = 0 ID = 102
   3.060193 1  12              Rx   d 4 01 01 00 00  Length = 0 BitCount = 0 ID = 18
   3.060269 1  11              Rx   d 8 9C 24 F9 0A 00 00 00 00  Length = 0 BitCount = 0 ID = 17
   3.060280 1  64              Rx   d 4 8C 00 00 00  Length = 0 BitCount = 0 ID = 100
   3.080052 1  64              Rx   d 4 94 00 00 00  Length = 0 BitCount = 0 ID = 100
   3.090013 1  64              Rx   d 4 9C 00 00 00  Length = 0 BitCount = 0 ID = 100
   3.100011 1  64              Rx   d 4 A4 00 00 00  Length = 0 BitCount = 0 ID = 100
   3.100139 1  11              Rx   d 8 63 23 CD 11 00 00 00 00  Length = 0 BitCount = 0 ID = 17
   3.110014 1  64              Rx   d 4 AC 00 00 00  Length = 0 BitCount = 0 ID = 100
   3.110044 1  65              Rx   d 3 32 00 00  Length = 0 BitCount = 0 ID = 101
   3.110104 1  10              Rx   d 8 D7 4D 00 00 00 00 00 00  Length = 0 BitCount = 0 ID = 16
   3.110134 1  12              Rx   d 4 00 01 00 00  Length = 0 BitCount = 0 ID = 18
   3.120011 1  64              Rx   d 4 B4 00 00 00  Length = 0 BitCount = 0 ID = 100
   3.130110 1  64              Rx   d 4 BC 00 00 00  Length = 0 BitCount = 0 ID = 100
   3.130139 1  11              Rx   d 8 2B 22 4D 22 00 00 00 00  Length = 0 BitCount = 0 ID = 17
   3.140015 1  64              Rx   d 4 C4 00 00 00  Length = 0 BitCount = 0 ID = 100
   3.150013 1  64              Rx   d 4 CC 00 00 00  Length = 0 BitCount = 0 ID = 100
   3.160153 1  64              Rx   d 4 D4 00 00 00  Length = 0 BitCount = 0 ID = 100
   3.160290 1  11              Rx   d 8 F4 20 20 1D 00 00 00 00  Length = 0 BitCount = 0 ID = 17
   3.160342 1  12              Rx   d 4 00 01 00 00  Length = 0 BitCount = 0 ID = 18
   3.160395 1  66              Rx   d 1 04  Length = 0 BitCount = 0 ID = 102
   3.170068 1  64              Rx   d 4 DC 00 00 00  Length = 0 BitCount = 0 ID = 100
   3.180094 1  64              Rx   d 4 E4 00 00 00  Length = 0 BitCount = 0 ID = 100
   3.190101 1  64              Rx   d 4 EC 00 00 00  Length = 0 BitCount = 0 ID = 100
   3.190134 1  11              Rx   d 8 BE 1F 64 16 00 00 00 00  Length = 0 BitCount = 0 ID = 17
   3.190157 1  64              Rx   d 4 F4 00 00 00  Length = 0 BitCount = 0 ID = 100
   3.210102 1  64              Rx   d 4 FC 00 00 00  Length = 0 BitCount = 0 ID = 100
   3.210135 1  12              Rx   d 4 00 01 00 00  Length = 0 BitCount = 0 ID = 18
   3.210157 1  10              Rx   d 8 06 4E 00 00 00 00 00 00  Length = 0 BitCount = 0 ID = 16
   3.210223 1  65              Rx   d 3 19 00 00  Length = 0 BitCount = 0 ID = 101
   3.220098 1  11              Rx   d 8 8B 1E 99 05 00 00 00 00  Length = 0 BitCount = 0 ID = 17
   3.220219 1  64              Rx   d 4 04 01 00 00  Length = 0 BitCount = 0 ID = 100
   3.230103 1  64              Rx   d 4 0C 01 00 00  Length = 0 BitCount = 0 ID = 100
   3.230137 1  64              Rx   d 4 14 01 00 00  Length = 0 BitCount = 0 ID = 100
   3.250083 1  64              Rx   d 4 1C 01 00 00  Length = 0 BitCount = 0 ID = 100
   3.250118 1  11              Rx   d 8 59 1D D7 18 00 00 00 00  Length = 0 BitCount = 0 ID = 17
   3.260090 1  64              Rx   d 4 24 01 00 00  Length = 0 BitCount = 0 ID = 100
   3.260122 1  66              Rx   d 1 02  Length = 0 BitCount = 0 ID = 102
   3.260194 1  12              Rx   d 4 00 01 00 00  Length = 0 BitCount = 0 ID = 18
   3.270103 1  64              Rx   d 4 2C 01 00 00  Length = 0 BitCount = 0 ID = 100
   3.280074 1  64              Rx   d 4 34 01 00 00  Length = 0 BitCount = 0 ID = 100
   3.280241 1  11              Rx   d 8 2A 1C DD 2C 00 00 00 00  Length = 0 BitCount = 0 ID = 17
   3.290127 1  64              Rx   d 4 3C 01 00 00  Length = 0 BitCount = 0 ID = 100
   3.300105 1  64              Rx   d 4 44 01 00 00  Length = 0 BitCount = 0 ID = 100
   3.310145 1  64              Rx   d 4 4C 01 00 00  Length = 0 BitCount = 0 ID = 100
   3.310178 1  11              Rx   d 8 FE 1A F1 14 00 00 00 00  Length = 0 BitCount = 0 ID = 17
   3.310201 1  12              Rx   d 4 00 01 00 00  Length = 0 BitCount = 0 ID = 18
   3.310217 1  65              Rx   d 3 01 00 00  Length = 0 BitCount = 0 ID = 101
   3.310282 1  10              Rx   d 8 1D 4E 00 00 00 00 00 00  Length = 0 BitCount = 0 ID = 16
   3.310326 1  64              Rx   d 4 54 01 00 00  Length = 0 BitCount = 0 ID = 100
   3.330117 1  64              Rx   d 4 5C 01 00 00  Length = 0 BitCount = 0 ID = 100
   3.340106 1  64              Rx   d 4 64 01 00 00  Length = 0 BitCount = 0 ID = 100
   3.340272 1  11              Rx   d 8 D5 19 F6 07 00 00 00 00  Length = 0 BitCount = 0 ID = 17
   3.350133 1  64              Rx   d 4 6C 01 00 00  Length = 0 BitCount = 0 ID = 100
   3.360104 1  64              Rx   d 4 74 01 00 00  Length = 0 BitCount = 0 ID = 100
   3.360136 1  66              Rx   d 1 04  Length = 0 BitCount = 0 ID = 102
   3.360206 1  12              Rx   d 4 00 01 00 00  Length = 0 BitCount = 0 ID = 18
   3.370111 1  11              Rx   d 8 AF 18 F9 0A 00 00 00 00  Length = 0 BitCount = 0 ID = 17
   3.370143 1  64              Rx   d 4 7C 01 00 00  Length = 0 BitCount = 0 ID = 100
   3.380073 1  64              Rx   d 4 84 01 00 00  Length = 0 BitCount = 0 ID = 100
   3.390099 1  64              Rx   d 4 8C 01 00 00  Length = 0 BitCount = 0 ID = 100
   3.400128 1  64              Rx   d 4 94 01 00 00  Length = 0 BitCount = 0 ID = 100
   3.400301 1  11              Rx   d 8 8D 17 CD 11 00 00 00 00  Length = 0 BitCount = 0 ID = 17
   3.400355 1  64              Rx   d 4 9C 01 00 00  Length = 0 BitCount = 0 ID = 100
   3.400367 1  65              Rx   d 3 19 00 00  Length = 0 BitCount = 0 ID = 101
   3.400394 1  10              Rx   d 8 1D 4E 00 00 00 00 00 00  Length = 0 BitCount = 0 ID = 16
   3.400422 1  12              Rx   d 4 00 01 00 00  Length = 0 BitCount = 0 ID = 18
   3.420127 1  64              Rx   d 4 A4 01 00 00  Length = 0 BitCount = 0 ID = 100
   3.430111 1  64              Rx   d 4 AC 01 00 00  Length = 0 BitCount = 0 ID = 100
   3.430143 1  11              Rx   d 8 6E 16 4D 22 00 00 00 00  Length = 0 BitCount = 0 ID = 17
   3.440133 1  64              Rx   d 4 B4 01 00 00  Length = 0 BitCount = 0 ID = 100
   3.440164 1  64              Rx   d 4 BC 01 00 00  Length = 0 BitCount = 0 ID = 100
   3.460133 1  64              Rx   d 4 C4 01 00 00  Length = 0 BitCount = 0 ID = 100
   3.460291 1  11              Rx   d 8 54 15 20 1D 00 00 00 00  Length = 0 BitCount = 0 ID = 17
   3.460343 1  12              Rx   d 4 00 01 00 00  Length = 0 BitCount = 0 ID = 18
   3.460396 1  66              Rx   d 1 02  Length = 0 BitCount = 0 ID = 102
   3.470130 1  64              Rx   d 4 CC 01 00 00  Length = 0 BitCount = 0 ID = 100
   3.480128 1  64              Rx   d 4 D4 01 00 00  Length = 0 BitCount = 0 ID = 100
   3.480160 1  64              Rx   d 4 DC 01 00 00  Length = 0 BitCount = 0 ID = 100
   3.480184 1  11              Rx   d 8 3E 14 64 16 00 00 00 00  Length = 0 BitCount = 0 ID = 17
   3.500107 1  64              Rx   d 4 E4 01 00 00  Length = 0 BitCount = 0 ID = 100
   3.510123 1  64              Rx   d 4 EC 01 00 00  Length = 0 BitCount = 0 ID = 100
   3.510160 1  12              Rx   d 4 00 01 00 00  Length = 0 BitCount = 0 ID = 18
   3.510183 1  10              Rx   d 8 06 4E 00 00 00 00 00 00  Length = 0 BitCount = 0 ID = 16
   3.510246 1  65              Rx   d 3 32 00 00  Length = 0 BitCount = 0 ID = 101
   3.520133 1  11              Rx   d 8 2E 13 99 05 00 00 00 00  Length = 0 BitCount = 0 ID = 17
   3.520256 1  64              Rx   d 4 F4 01 00 00  Length = 0 BitCount = 0 ID = 100
   3.520336 1  64              Rx   d 4 FC 01 00 00  Length = 0 BitCount = 0 ID = 100
   3.540135 1  64              Rx   d 4 04 02 00 00  Length = 0 BitCount = 0 ID = 100
   3.550123 1  64              Rx   d 4 0C 02 00 00  Length = 0 BitCount = 0 ID = 100
   3.550154 1  11              Rx   d 8 22 12 D7 18 00 00 00 00  Length = 0 BitCount = 0 ID = 17
   3.560132 1  64              Rx   d 4 14 02 00 00  Length = 0 BitCount = 0 ID = 100
   3.560163 1  66              Rx   d 1 04  Length = 0 BitCount = 0 ID = 102
   3.560234 1  12              Rx   d 4 00 01 00 00  Length = 0 BitCount = 0 ID = 18
   3.560312 1  64              Rx   d 4 1C 02 00 00  Length = 0 BitCount = 0 ID = 100
   3.580132 1  64              Rx   d 4 24 02 00 00  Length = 0 BitCount = 0 ID = 100
   3.580289 1  11              Rx   d 8 1B 11 DD 2C 00 00 00 00  Length = 0 BitCount = 0 ID = 17
   3.590114 1  64              Rx   d 4 2C 02 00 00  Length = 0 BitCount = 0 ID = 100
   3.600140 1  64              Rx   d 4 34 02 00 00  Length = 0 BitCount = 0 ID = 100
   3.610137 1  64              Rx   d 4 3C 02 00 00  Length = 0 BitCount = 0 ID = 100
   3.610168 1  11              Rx   d 8 1A 10 F1 14 00 00 00 00  Length = 0 BitCount = 0 ID = 17
   3.610191 1  12              Rx   d 4 01 01 00 00  Length = 0 BitCount = 0 ID = 18
   3.610209 1  65              Rx   d 3 19 00 00  Length = 0 BitCount = 0 ID = 101
   3.610267 1  10              Rx   d 8 D7 4D 00 00 00 00 00 00  Length = 0 BitCount = 0 ID = 16
   3.620042 1  64              Rx   d 4 44 02 00 00  Length = 0 BitCount = 0 ID = 100
   3.630075 1  64              Rx   d 4 4C 02 00 00  Length = 0 BitCount = 0 ID = 100
   3.640082 1  64              Rx   d 4 54 02 00 00  Length = 0 BitCount = 0 ID = 100
   3.640213 1  11              Rx   d 8 1F 0F F6 07 00 00 00 00  Length = 0 BitCount = 0 ID = 17
   3.650082 1  64              Rx   d 4 5C 02 00 00  Length = 0 BitCount = 0 ID = 100
   3.650118 1  64              Rx   d 4 64 02 00 00  Length = 0 BitCount = 0 ID = 100
   3.650142 1  66              Rx   d 1 02  Length = 0 BitCount = 0 ID = 102
   3.650202 1  12              Rx   d 4 00 01 00 00  Length = 0 BitCount = 0 ID = 18
   3.670166 1  11              Rx   d 8 2A 0E F9 0A 00 00 00 00  Length = 0 BitCount = 0 ID = 17
   3.670202 1  64              Rx   d 4 6C 02 00 00  Length = 0 BitCount = 0 ID = 100
   3.680120 1  64              Rx   d 4 74 02 00 00  Length = 0 BitCount = 0 ID = 100
   3.690128 1  64              Rx   d 4 7C 02 00 00  Length = 0 BitCount = 0 ID = 100
   3.690160 1  64              Rx   d 4 84 02 00 00  Length = 0 BitCount = 0 ID = 100
   3.690184 1  11              Rx   d 8 3B 0D CD 11 00 00 00 00  Length = 0 BitCount = 0 ID = 17
   3.710127 1  64              Rx   d 4 8C 02 00 00  Length = 0 BitCount = 0 ID = 100
   3.710271 1  65              Rx   d 3 01 00 00  Length = 0 BitCount = 0 ID = 101
   3.710304 1  10              Rx   d 8 91 4D 00 00 00 00 00 00  Length = 0 BitCount = 0 ID = 16
   3.710332 1  12              Rx   d 4 00 01 00 00  Length = 0 BitCount = 0 ID = 18
   3.720163 1  64              Rx   d 4 94 02 00 00  Length = 0 BitCount = 0 ID = 100
   3.730129 1  64              Rx   d 4 9C 02 00 00  Length = 0 BitCount = 0 ID = 100
   3.730166 1  11              Rx   d 8 53 0C 4D 22 00 00 00 00  Length = 0 BitCount = 0 ID = 17
   3.730283 1  64              Rx   d 4 A4 02 00 00  Length = 0 BitCount = 0 ID = 100
   3.750126 1  64              Rx   d 4 AC 02 00 00  Length = 0 BitCount = 0 ID = 100
   3.760173 1  64              Rx   d 4 B4 02 00 00  Length = 0 BitCount = 0 ID = 100
   3.760210 1  11              Rx   d 8 71 0B 20 1D 00 00 00 00  Length = 0 BitCount = 0 ID = 17
   3.760233 1  12              Rx   d 4 00 01 00 00  Length = 0 BitCount = 0 ID = 18
   3.760249 1  66              Rx   d 1 04  Length = 0 BitCount = 0 ID = 102
   3.770116 1  64              Rx   d 4 BC 02 00 00  Length = 0 BitCount = 0 ID = 100
   3.770268 1  64              Rx   d 4 C4 02 00 00  Length = 0 BitCount = 0 ID = 100
   3.790150 1  64              Rx   d 4 CC 02 00 00  Length = 0 BitCount = 0 ID = 100
   3.790184 1  11              Rx   d 8 96 0A 64 16 00 00 00 00  Length = 0 BitCount = 0 ID = 17
   3.800152 1  64              Rx   d 4 D4 02 00 00  Length = 0 BitCount = 0 ID = 100
   3.810126 1  64              Rx   d 4 DC 02 00 00  Length = 0 BitCount = 0 ID = 100
   3.810151 1  12              Rx   d 4 00 01 00 00  Length = 0 BitCount = 0 ID = 18
   3.810225 1  10              Rx   d 8 34 4D 00 00 00 00 00 00  Length = 0 BitCount = 0 ID = 16
   3.810258 1  65              Rx   d 3 19 00 00  Length = 0 BitCount = 0 ID = 101
   3.810288 1  11              Rx   d 8 C3 09 99 05 00 00 00 00  Length = 0 BitCount = 0 ID = 17
   3.810300 1  64              Rx   d 4 E4 02 00 00  Length = 0 BitCount = 0 ID = 100
   3.830121 1  64              Rx   d 4 EC 02 00 00  Length = 0 BitCount = 0 ID = 100
   3.840131 1  64              Rx   d 4 F4 02 00 00  Length = 0 BitCount = 0 ID = 100
   3.850150 1  64              Rx   d 4 FC 02 00 00  Length = 0 BitCount = 0 ID = 100
   3.850182 1  11              Rx   d 8 F7 08 D7 18 00 00 00 00  Length = 0 BitCount = 0 ID = 17
   3.850304 1  64              Rx   d 4 04 03 00 00  Length = 0 BitCount = 0 ID = 100
   3.850318 1  66              Rx   d 1 02  Length = 0 BitCount = 0 ID = 102
   3.850348 1  12              Rx   d 4 00 01 00 00  Length = 0 BitCount = 0 ID = 18
   3.870134 1  64              Rx   d 4 0C 03 00 00  Length = 0 BitCount = 0 ID = 100
   3.880155 1  64              Rx   d 4 14 03 00 00  Length = 0 BitCount = 0 ID = 100
   3.880187 1  11              Rx   d 8 32 08 DD 2C 00 00 00 00  Length = 0 BitCount = 0 ID = 17
   3.890156 1  64              Rx   d 4 1C 03 00 00  Length = 0 BitCount = 0 ID = 100
   3.890314 1  64              Rx   d 4 24 03 00 00  Length = 0 BitCount = 0 ID = 100
   3.900151 1  64              Rx   d 4 2C 03 00 00  Length = 0 BitCount = 0 ID = 100
   3.900184 1  11              Rx   d 8 76 07 F1 14 00 00 00 00  Length = 0 BitCount = 0 ID = 17
   3.900206 1  12              Rx   d 4 00 01 00 00  Length = 0 BitCount = 0 ID = 18
   3.900308 1  65              Rx   d 3 32 00 00  Length = 0 BitCount = 0 ID = 101
   3.900337 1  10              Rx   d 8 C1 4C 00 00 00 00 00 00  Length = 0 BitCount = 0 ID = 16
   3.920150 1  64              Rx   d 4 34 03 00 00  Length = 0 BitCount = 0 ID = 100
   3.930141 1  64              Rx   d 4 3C 03 00 00  Length = 0 BitCount = 0 ID = 100
   3.940146 1  64              Rx   d 4 44 03 00 00  Length = 0 BitCount = 0 ID = 100
   3.940177 1  11              Rx   d 8 C1 06 F6 07 00 00 00 00  Length = 0 BitCount = 0 ID = 17
   3.940289 1  64              Rx   d 4 4C 03 00 00  Length = 0 BitCount = 0 ID = 100
   3.960155 1  64              Rx   d 4 54 03 00 00  Length = 0 BitCount = 0 ID = 100
   3.960321 1  66              Rx   d 1 04  Length = 0 BitCount = 0 ID = 102
   3.960353 1  12              Rx   d 4 00 01 00 00  Length = 0 BitCount = 0 ID = 18
   3.970143 1  11              Rx   d 8 15 06 F9 0A 00 00 00 00  Length = 0 BitCount = 0 ID = 17
   3.970175 1  64              Rx   d 4 5C 03 00 00  Length = 0 BitCount = 0 ID = 100
   3.980155 1  64              Rx   d 4 64 03 00 00  Length = 0 BitCount = 0 ID = 100
   3.980187 1  64              Rx   d 4 6C 03 00 00  Length = 0 BitCount = 0 ID = 100
   4.000161 1  64              Rx   d 4 74 03 00 00  Length = 0 BitCount = 0 ID = 100
   4.000193 1  11              Rx   d 8 71 05 CD 11 00 00 00 00  Length = 0 BitCount = 0 ID = 17
   4.010222 1  64              Rx   d 4 7C 03 00 00  Length = 0 BitCount = 0 ID = 100
   4.010262 1  65              Rx   d 3 19 00 00  Length = 0 BitCount = 0 ID = 101
   4.010319 1  10              Rx   d 8 37 4C 00 00 00 00 00 00  Length = 0 BitCount = 0 ID = 16
   4.010350 1  12              Rx   d 4 00 01 00 00  Length = 0 BitCount = 0 ID = 18
   4.020171 1  64              Rx   d 4 64 00 00 00  Length = 0 BitCount = 0 ID = 100
   4.020337 1  64              Rx   d 4 6C 00 00 00  Length = 0 BitCount = 0 ID = 100
   4.020350 1  11              Rx   d 8 D5 04 4D 22 00 00 00 00  Length = 0 BitCount = 0 ID = 17
   4.040172 1  64              Rx   d 4 74 00 00 00  Length = 0 BitCount = 0 ID = 100
   4.050149 1  64              Rx   d 4 7C 00 00 00  Length = 0 BitCount = 0 ID = 100
   4.060159 1  64              Rx   d 4 84 00 00 00  Length = 0 BitCount = 0 ID = 100
   4.060196 1  11              Rx   d 8 42 04 20 1D 00 00 00 00  Length = 0 BitCount = 0 ID = 17
   4.060314 1  12              Rx   d 4 00 01 00 00  Length = 0 BitCount = 0 ID = 18
   4.060367 1  66              Rx   d 1 02  Length = 0 BitCount = 0 ID = 102
   4.060397 1  64              Rx   d 4 8C 00 00 00  Length = 0 BitCount = 0 ID = 100
   4.080148 1  64              Rx   d 4 94 00 00 00  Length = 0 BitCount = 0 ID = 100
   4.090164 1  64              Rx   d 4 9C 00 00 00  Length = 0 BitCount = 0 ID = 100
   4.090198 1  11              Rx   d 8 B8 03 64 16 00 00 00 00  Length = 0 BitCount = 0 ID = 17
   4.100207 1  64              Rx   d 4 A4 00 00 00  Length = 0 BitCount = 0 ID = 100
   4.110147 1  64              Rx   d 4 AC 00 00 00  Length = 0 BitCount = 0 ID = 100
   4.110185 1  10              Rx   d 8 96 4B 00 00 00 00 00 00  Length = 0 BitCount = 0 ID = 16
   4.110267 1  12              Rx   d 4 00 01 00 00  Length = 0 BitCount = 0 ID = 18
   4.110291 1  65              Rx   d 3 01 00 00  Length = 0 BitCount = 0 ID = 101
   4.120175 1  64              Rx   d 4 B4 00 00 00  Length = 0 BitCount = 0 ID = 100
   4.120209 1  11              Rx   d 8 36 03 99 05 00 00 00 00  Length = 0 BitCount = 0 ID = 17
   4.130179 1  64              Rx   d 4 BC 00 00 00  Length = 0 BitCount = 0 ID = 100
   4.140158 1  64              Rx   d 4 C4 00 00 00  Length = 0 BitCount = 0 ID = 100
   4.140314 1  64              Rx   d 4 CC 00 00 00  Length = 0 BitCount = 0 ID = 100
   4.140327 1  11              Rx   d 8 BE 02 D7 18 00 00 00 00  Length = 0 BitCount = 0 ID = 17
   4.150166 1  64              Rx   d 4 D4 00 00 00  Length = 0 BitCount = 0 ID = 100
   4.150201 1  66              Rx   d 1 04  Length = 0 BitCount = 0 ID = 102
   4.150271 1  12              Rx   d 4 01 01 00 00  Length = 0 BitCount = 0 ID = 18
   4.170105 1  64              Rx   d 4 DC 00 00 00  Length = 0 BitCount = 0 ID = 100
   4.180168 1  64              Rx   d 4 E4 00 00 00  Length = 0 BitCount = 0 ID = 100
   4.180203 1  11              Rx   d 8 4F 02 DD 2C 00 00 00 00  Length = 0 BitCount = 0 ID = 17
   4.190075 1  64              Rx   d 4 EC 00 00 00  Length = 0 BitCount = 0 ID = 100
   4.190107 1  64              Rx   d 4 F4 00 00 00  Length = 0 BitCount = 0 ID = 100
   4.210114 1  64              Rx   d 4 FC 00 00 00  Length = 0 BitCount = 0 ID = 100
   4.210252 1  11              Rx   d 8 E9 01 F1 14 00 00 00 00  Length = 0 BitCount = 0 ID = 17
   4.210265 1  12              Rx   d 4 00 01 00 00  Length = 0 BitCount = 0 ID = 18
   4.210307 1  65              Rx   d 3 19 00 00  Length = 0 BitCount = 0 ID = 101
   4.210336 1  10              Rx   d 8 E0 4A 00 00 00 00 00 00  Length = 0 BitCount = 0 ID = 16
   4.220109 1  64              Rx   d 4 04 01 00 00  Length = 0 BitCount = 0 ID = 100
   4.230170 1  64              Rx   d 4 0C 01 00 00  Length = 0 BitCount = 0 ID = 100
   4.230205 1  64              Rx   d 4 14 01 00 00  Length = 0 BitCount = 0 ID = 100
   4.230222 1  11              Rx   d 8 8D 01 F6 07 00 00 00 00  Length = 0 BitCount = 0 ID = 17
   4.250120 1  64              Rx   d 4 1C 01 00 00  Length = 0 BitCount = 0 ID = 100
   4.260111 1  64              Rx   d 4 24 01 00 00  Length = 0 BitCount = 0 ID = 100
   4.260144 1  66              Rx   d 1 02  Length = 0 BitCount = 0 ID = 102
   4.260213 1  12              Rx   d 4 00 01 00 00  Length = 0 BitCount = 0 ID = 18
   4.270185 1  11              Rx   d 8 3A 01 F9 0A 00 00 00 00  Length = 0 BitCount = 0 ID = 17
   4.270317 1  64              Rx   d 4 2C 01 00 00  Length = 0 BitCount = 0 ID = 100
   4.270392 1  64              Rx   d 4 34 01 00 00  Length = 0 BitCount = 0 ID = 100
   4.290125 1  64              Rx   d 4 3C 01 00 00  Length = 0 BitCount = 0 ID = 100
   4.300176 1  64              Rx   d 4 44 01 00 00  Length = 0 BitCount = 0 ID = 100
   4.300208 1  11              Rx   d 8 F1 00 CD 11 00 00 00 00  Length = 0 BitCount = 0 ID = 17
   4.310134 1  64              Rx   d 4 4C 01 00 00  Length = 0 BitCount = 0 ID = 100
   4.310165 1  10              Rx   d 8 14 4A 00 00 00 00 00 00  Length = 0 BitCount = 0 ID = 16
   4.310231 1  65              Rx   d 3 32 00 00  Length = 0 BitCount = 0 ID = 101
   4.310286 1  12              Rx   d 4 00 01 00 00  Length = 0 BitCount = 0 ID = 18
   4.310347 1  64              Rx   d 4 54 01 00 00  Length = 0 BitCount = 0 ID = 100
   4.330186 1  64              Rx   d 4 5C 01 00 00  Length = 0 BitCount = 0 ID = 100
   4.330343 1  11              Rx   d 8 B1 00 4D 22 00 00 00 00  Length = 0 BitCount = 0 ID = 17
   4.340151 1  64              Rx   d 4 64 01 00 00  Length = 0 BitCount = 0 ID = 100
   4.350181 1  64              Rx   d 4 6C 01 00 00  Length = 0 BitCount = 0 ID = 100
   4.360178 1  64              Rx   d 4 74 01 00 00  Length = 0 BitCount = 0 ID = 100
   4.360210 1  11              Rx   d 8 7B 00 20 1D 00 00 00 00  Length = 0 BitCount = 0 ID = 17
   4.360232 1  12              Rx   d 4 00 01 00 00  Length = 0 BitCount = 0 ID = 18
   4.360249 1  66              Rx   d 1 04  Length = 0 BitCount = 0 ID = 102
   4.370158 1  64              Rx   d 4 7C 01 00 00  Length = 0 BitCount = 0 ID = 100
   4.380181 1  64              Rx   d 4 84 01 00 00  Length = 0 BitCount = 0 ID = 100
   4.390169 1  64              Rx   d 4 8C 01 00 00  Length = 0 BitCount = 0 ID = 100
   4.390287 1  11              Rx   d 8 4F 00 64 16 00 00 00 00  Length = 0 BitCount = 0 ID = 17
   4.390342 1  64              Rx   d 4 94 01 00 00  Length = 0 BitCount = 0 ID = 100
   4.400204 1  64              Rx   d 4 9C 01 00 00  Length = 0 BitCount = 0 ID = 100
   4.400241 1  65              Rx   d 3 19 00 00  Length = 0 BitCount = 0 ID = 101
   4.400310 1  12              Rx   d 4 00 01 00 00  Length = 0 BitCount = 0 ID = 18
   4.400388 1  10              Rx   d 8 34 49 00 00 00 00 00 00  Length = 0 BitCount = 0 ID = 16
   4.420206 1  64              Rx   d 4 A4 01 00 00  Length = 0 BitCount = 0 ID = 100
   4.420243 1  11              Rx   d 8 2C 00 99 05 00 00 00 00  Length = 0 BitCount = 0 ID = 17
   4.430163 1  64              Rx   d 4 AC 01 00 00  Length = 0 BitCount = 0 ID = 100
   4.440152 1  64              Rx   d 4 B4 01 00 00  Length = 0 BitCount = 0 ID = 100
   4.440184 1  64              Rx   d 4 BC 01 00 00  Length = 0 BitCount = 0 ID = 100
   4.440208 1  11              Rx   d 8 14 00 D7 18 00 00 00 00  Length = 0 BitCount = 0 ID = 17
   4.460180 1  64              Rx   d 4 C4 01 00 00  Length = 0 BitCount = 0 ID = 100
   4.460345 1  12              Rx   d 4 00 01 00 00  Length = 0 BitCount = 0 ID = 18
   4.460388 1  66              Rx   d 1 02  Length = 0 BitCount = 0 ID = 102
   4.470164 1  64              Rx   d 4 CC 01 00 00  Length = 0 BitCount = 0 ID = 100
   4.480182 1  64              Rx   d 4 D4 01 00 00  Length = 0 BitCount = 0 ID = 100
   4.480216 1  11              Rx   d 8 05 00 DD 2C 00 00 00 00  Length = 0 BitCount = 0 ID = 17
   4.480327 1  64              Rx   d 4 DC 01 00 00  Length = 0 BitCount = 0 ID = 100
   4.500107 1  64              Rx   d 4 E4 01 00 00  Length = 0 BitCount = 0 ID = 100
   4.510152 1  64              Rx   d 4 EC 01 00 00  Length = 0 BitCount = 0 ID = 100
   4.510187 1  11              Rx   d 8 00 00 F1 14 00 00 00 00  Length = 0 BitCount = 0 ID = 17
   4.510205 1  10              Rx   d 8 3F 48 00 00 00 00 00 00  Length = 0 BitCount = 0 ID = 16
   4.510259 1  65              Rx   d 3 01 00 00  Length = 0 BitCount = 0 ID = 101
   4.510290 1  12              Rx   d 4 00 01 00 00  Length = 0 BitCount = 0 ID = 18
   4.520188 1  64              Rx   d 4 F4 01 00 00  Length = 0 BitCount = 0 ID = 100
   4.520347 1  64              Rx   d 4 FC 01 00 00  Length = 0 BitCount = 0 ID = 100
   4.540146 1  64              Rx   d 4 04 02 00 00  Length = 0 BitCount = 0 ID = 100
   4.540175 1  11              Rx   d 8 05 00 F6 07 00 00 00 00  Length = 0 BitCount = 0 ID = 17
   4.550167 1  64              Rx   d 4 0C 02 00 00  Length = 0 BitCount = 0 ID = 100
   4.560189 1  64              Rx   d 4 14 02 00 00  Length = 0 BitCount = 0 ID = 100
   4.560224 1  12              Rx   d 4 00 00 00 00  Length = 0 BitCount = 0 ID = 18
   4.560343 1  66              Rx   d 1 04  Length = 0 BitCount = 0 ID = 102
   4.560373 1  64              Rx   d 4 1C 02 00 00  Length = 0 BitCount = 0 ID = 100
   4.560385 1  11              Rx   d 8 14 00 F9 0A 00 00 00 00  Length = 0 BitCount = 0 ID = 17
   4.580185 1  64              Rx   d 4 24 02 00 00  Length = 0 BitCount = 0 ID = 100
   4.590144 1  64              Rx   d 4 2C 02 00 00  Length = 0 BitCount = 0 ID = 100
   4.600191 1  64              Rx   d 4 34 02 00 00  Length = 0 BitCount = 0 ID = 100
   4.600219 1  11              Rx   d 8 2C 00 CD 11 00 00 00 00  Length = 0 BitCount = 0 ID = 17
   4.600293 1  64              Rx   d 4 3C 02 00 00  Length = 0 BitCount = 0 ID = 100
   4.600307 1  65              Rx   d 3 19 00 00  Length = 0 BitCount = 0 ID = 101
   4.600335 1  12              Rx   d 4 00 00 00 00  Length = 0 BitCount = 0 ID = 18
   4.600346 1  10              Rx   d 8 36 47 00 00 00 00 00 00  Length = 0 BitCount = 0 ID = 16
   4.620191 1  64              Rx   d 4 44 02 00 00  Length = 0 BitCount = 0 ID = 100
   4.630170 1  64              Rx   d 4 4C 02 00 00  Length = 0 BitCount = 0 ID = 100
   4.630202 1  11              Rx   d 8 4F 00 4D 22 00 00 00 00  Length = 0 BitCount = 0 ID = 17
   4.640194 1  64              Rx   d 4 54 02 00 00  Length = 0 BitCount = 0 ID = 100
   4.640338 1  64              Rx   d 4 5C 02 00 00  Length = 0 BitCount = 0 ID = 100
   4.650180 1  64              Rx   d 4 64 02 00 00  Length = 0 BitCount = 0 ID = 100
   4.650215 1  11              Rx   d 8 7B 00 20 1D 00 00 00 00  Length = 0 BitCount = 0 ID = 17
   4.650237 1  12              Rx   d 4 00 00 00 00  Length = 0 BitCount = 0 ID = 18
   4.650349 1  66              Rx   d 1 02  Length = 0 BitCount = 0 ID = 102
   4.670204 1  64              Rx   d 4 6C 02 00 00  Length = 0 BitCount = 0 ID = 100
   4.680196 1  64              Rx   d 4 74 02 00 00  Length = 0 BitCount = 0 ID = 100
   4.690196 1  64              Rx   d 4 7C 02 00 00  Length = 0 BitCount = 0 ID = 100
   4.690216 1  11              Rx   d 8 B1 00 64 16 00 00 00 00  Length = 0 BitCount = 0 ID = 17
   4.690288 1  64              Rx   d 4 84 02 00 00  Length = 0 BitCount = 0 ID = 100
   4.710150 1  64              Rx   d 4 8C 02 00 00  Length = 0 BitCount = 0 ID = 100
   4.710187 1  10              Rx   d 8 1A 46 00 00 00 00 00 00  Length = 0 BitCount = 0 ID = 16
   4.710208 1  12              Rx   d 4 01 00 00 00  Length = 0 BitCount = 0 ID = 18
   4.710224 1  65              Rx   d 3 32 00 00  Length = 0 BitCount = 0 ID = 101
   4.720179 1  64              Rx   d 4 94 02 00 00  Length = 0 BitCount = 0 ID = 100
   4.720293 1  11              Rx   d 8 F1 00 99 05 00 00 00 00  Length = 0 BitCount = 0 ID = 17
   4.730133 1  64              Rx   d 4 9C 02 00 00  Length = 0 BitCount = 0 ID = 100
   4.730167 1  64              Rx   d 4 A4 02 00 00  Length = 0 BitCount = 0 ID = 100
   4.750198 1  64              Rx   d 4 AC 02 00 00  Length = 0 BitCount = 0 ID = 100
   4.750232 1  11              Rx   d 8 3A 01 D7 18 00 00 00 00  Length = 0 BitCount = 0 ID = 17
   4.760140 1  64              Rx   d 4 B4 02 00 00  Length = 0 BitCount = 0 ID = 100
   4.760173 1  66              Rx   d 1 04  Length = 0 BitCount = 0 ID = 102
   4.760240 1  12              Rx   d 4 00 00 00 00  Length = 0 BitCount = 0 ID = 18
   4.770140 1  64              Rx   d 4 BC 02 00 00  Length = 0 BitCount = 0 ID = 100
   4.770174 1  64              Rx   d 4 C4 02 00 00  Length = 0 BitCount = 0 ID = 100
   4.770197 1  11              Rx   d 8 8D 01 DD 2C 00 00 00 00  Length = 0 BitCount = 0 ID = 17
   4.790183 1  64              Rx   d 4 CC 02 00 00  Length = 0 BitCount = 0 ID = 100
   4.800136 1  64              Rx   d 4 D4 02 00 00  Length = 0 BitCount = 0 ID = 100
   4.810198 1  64              Rx   d 4 DC 02 00 00  Length = 0 BitCount = 0 ID = 100
   4.810231 1  11              Rx   d 8 E9 01 F1 14 00 00 00 00  Length = 0 BitCount = 0 ID = 17
   4.810306 1  12              Rx   d 4 00 00 00 00  Length = 0 BitCount = 0 ID = 18
   4.810320 1  65              Rx   d 3 19 00 00  Length = 0 BitCount = 0 ID = 101
   4.810345 1  10              Rx   d 8 EB 44 00 00 00 00 00 00  Length = 0 BitCount = 0 ID = 16
   4.810374 1  64              Rx   d 4 E4 02 00 00  Length = 0 BitCount = 0 ID = 100
   4.830181 1  64              Rx   d 4 EC 02 00 00  Length = 0 BitCount = 0 ID = 100
   4.840222 1  64              Rx   d 4 F4 02 00 00  Length = 0 BitCount = 0 ID = 100
   4.840254 1  11              Rx   d 8 4F 02 F6 07 00 00 00 00  Length = 0 BitCount = 0 ID = 17
   4.850262 1  64              Rx   d 4 FC 02 00 00  Length = 0 BitCount = 0 ID = 100
   4.850399 1  64              Rx   d 4 04 03 00 00  Length = 0 BitCount = 0 ID = 100
   4.850413 1  66              Rx   d 1 02  Length = 0 BitCount = 0 ID = 102
   4.850442 1  12              Rx   d 4 00 00 00 00  Length = 0 BitCount = 0 ID = 18
   4.870188 1  11              Rx   d 8 BE 02 F9 0A 00 00 00 00  Length = 0 BitCount = 0 ID = 17
   4.870319 1  64              Rx   d 4 0C 03 00 00  Length = 0 BitCount = 0 ID = 100
   4.880199 1  64              Rx   d 4 14 03 00 00  Length = 0 BitCount = 0 ID = 100
   4.890186 1  64              Rx   d 4 1C 03 00 00  Length = 0 BitCount = 0 ID = 100
   4.900200 1  64              Rx   d 4 24 03 00 00  Length = 0 BitCount = 0 ID = 100
   4.900232 1  11              Rx   d 8 36 03 CD 11 00 00 00 00  Length = 0 BitCount = 0 ID = 17
   4.900255 1  64              Rx   d 4 2C 03 00 00  Length = 0 BitCount = 0 ID = 100
   4.900274 1  10              Rx   d 8 AB 43 00 00 00 00 00 00  Length = 0 BitCount = 0 ID = 16
   4.900333 1  65              Rx   d 3 01 00 00  Length = 0 BitCount = 0 ID = 101
   4.900379 1  12              Rx   d 4 00 00 00 00  Length = 0 BitCount = 0 ID = 18
   4.920200 1  64              Rx   d 4 34 03 00 00  Length = 0 BitCount = 0 ID = 100
   4.930189 1  64              Rx   d 4 3C 03 00 00  Length = 0 BitCount = 0 ID = 100
   4.930226 1  11              Rx   d 8 B8 03 4D 22 00 00 00 00  Length = 0 BitCount = 0 ID = 17
   4.930343 1  64              Rx   d 4 44 03 00 00  Length = 0 BitCount = 0 ID = 100
   4.940195 1  64              Rx   d 4 4C 03 00 00  Length = 0 BitCount = 0 ID = 100
   4.960198 1  64              Rx   d 4 54 03 00 00  Length = 0 BitCount = 0 ID = 100
   4.960231 1  11              Rx   d 8 42 04 20 1D 00 00 00 00  Length = 0 BitCount = 0 ID = 17
   4.960253 1  12              Rx   d 4 00 00 00 00  Length = 0 BitCount = 0 ID = 18
   4.960364 1  66              Rx   d 1 04  Length = 0 BitCount = 0 ID = 102
   4.970188 1  64              Rx   d 4 5C 03 00 00  Length = 0 BitCount = 0 ID = 100
   4.980200 1  64              Rx   d 4 64 03 00 00  Length = 0 BitCount = 0 ID = 100
   4.980360 1  64              Rx   d 4 6C 03 00 00  Length = 0 BitCount = 0 ID = 100
   4.980377 1  11              Rx   d 8 D5 04 64 16 00 00 00 00  Length = 0 BitCount = 0 ID = 17
   5.000197 1  64              Rx   d 4 74 03 00 00  Length = 0 BitCount = 0 ID = 100
   5.010190 1  64              Rx   d 4 7C 03 00 00  Length = 0 BitCount = 0 ID = 100
   5.010223 1  65              Rx   d 3 19 00 00  Length = 0 BitCount = 0 ID = 101
   5.010289 1  12              Rx   d 4 00 00 00 00  Length = 0 BitCount = 0 ID = 18
   5.010310 1  10              Rx   d 8 59 42 00 00 00 00 00 00  Length = 0 BitCount = 0 ID = 16
   5.020239 1  64              Rx   d 4 64 00 00 00  Length = 0 BitCount = 0 ID = 100
   5.020276 1  11              Rx   d 8 71 05 99 05 00 00 00 00  Length = 0 BitCount = 0 ID = 17
   5.020367 1  64              Rx   d 4 6C 00 00 00  Length = 0 BitCount = 0 ID = 100
   5.040200 1  64              Rx   d 4 74 00 00 00  Length = 0 BitCount = 0 ID = 100
   5.050214 1  64              Rx   d 4 7C 00 00 00  Length = 0 BitCount = 0 ID = 100
   5.050249 1  11              Rx   d 8 15 06 D7 18 00 00 00 00  Length = 0 BitCount = 0 ID = 17
   5.060174 1  64              Rx   d 4 84 00 00 00  Length = 0 BitCount = 0 ID = 100
   5.060206 1  12              Rx   d 4 00 00 00 00  Length = 0 BitCount = 0 ID = 18
   5.060338 1  66              Rx   d 1 02  Length = 0 BitCount = 0 ID = 102
   5.060374 1  64              Rx   d 4 8C 00 00 00  Length = 0 BitCount = 0 ID = 100
   5.080201 1  64              Rx   d 4 94 00 00 00  Length = 0 BitCount = 0 ID = 100
   5.080233 1  11              Rx   d 8 C1 06 DD 2C 00 00 00 00  Length = 0 BitCount = 0 ID = 17
   5.090209 1  64              Rx   d 4 9C 00 00 00  Length = 0 BitCount = 0 ID = 100
   5.100201 1  64              Rx   d 4 A4 00 00 00  Length = 0 BitCount = 0 ID = 100
   5.100357 1  64              Rx   d 4 AC 00 00 00  Length = 0 BitCount = 0 ID = 100
   5.100370 1  11              Rx   d 8 76 07 F1 14 00 00 00 00  Length = 0 BitCount = 0 ID = 17
   5.100377 1  65              Rx   d 3 32 00 00  Length = 0 BitCount = 0 ID = 101
   5.100404 1  10              Rx   d 8 F7 40 00 00 00 00 00 00  Length = 0 BitCount = 0 ID = 16
   5.100433 1  12              Rx   d 4 00 00 00 00  Length = 0 BitCount = 0 ID = 18
   5.120199 1  64              Rx   d 4 B4 00 00 00  Length = 0 BitCount = 0 ID = 100
   5.130213 1  64              Rx   d 4 BC 00 00 00  Length = 0 BitCount = 0 ID = 100
   5.140201 1  64              Rx   d 4 C4 00 00 00  Length = 0 BitCount = 0 ID = 100
   5.140232 1  11              Rx   d 8 32 08 F6 07 00 00 00 00  Length = 0 BitCount = 0 ID = 17
   5.140341 1  64              Rx   d 4 CC 00 00 00  Length = 0 BitCount = 0 ID = 100
   5.150214 1  64              Rx   d 4 D4 00 00 00  Length = 0 BitCount = 0 ID = 100
   5.150251 1  12              Rx   d 4 00 00 00 00  Length = 0 BitCount = 0 ID = 18
   5.150351 1  66              Rx   d 1 04  Length = 0 BitCount = 0 ID = 102
   5.170256 1  11              Rx   d 8 F7 08 F9 0A 00 00 00 00  Length = 0 BitCount = 0 ID = 17
   5.170292 1  64              Rx   d 4 DC 00 00 00  Length = 0 BitCount = 0 ID = 100
   5.180234 1  64              Rx   d 4 E4 00 00 00  Length = 0 BitCount = 0 ID = 100
   5.190222 1  64              Rx   d 4 EC 00 00 00  Length = 0 BitCount = 0 ID = 100
   5.190259 1  64              Rx   d 4 F4 00 00 00  Length = 0 BitCount = 0 ID = 100
   5.190284 1  11              Rx   d 8 C3 09 CD 11 00 00 00 00  Length = 0 BitCount = 0 ID = 17
   5.210201 1  64              Rx   d 4 FC 00 00 00  Length = 0 BitCount = 0 ID = 100
   5.210237 1  12              Rx   d 4 00 00 00 00  Length = 0 BitCount = 0 ID = 18
   5.210344 1  10              Rx   d 8 86 3F 00 00 00 00 00 00  Length = 0 BitCount = 0 ID = 16
   5.210373 1  65              Rx   d 3 19 00 00  Length = 0 BitCount = 0 ID = 101
   5.220196 1  64              Rx   d 4 04 01 00 00  Length = 0 BitCount = 0 ID = 100
   5.230215 1  64              Rx   d 4 0C 01 00 00  Length = 0 BitCount = 0 ID = 100
   5.230373 1  11              Rx   d 8 96 0A 4D 22 00 00 00 00  Length = 0 BitCount = 0 ID = 17
   5.230426 1  64              Rx   d 4 14 01 00 00  Length = 0 BitCount = 0 ID = 100
   5.250211 1  64              Rx   d 4 1C 01 00 00  Length = 0 BitCount = 0 ID = 100
   5.260116 1  64              Rx   d 4 24 01 00 00  Length = 0 BitCount = 0 ID = 100
   5.260139 1  11              Rx   d 8 71 0B 20 1D 00 00 00 00  Length = 0 BitCount = 0 ID = 17
   5.260154 1  66              Rx   d 1 02  Length = 0 BitCount = 0 ID = 102
   5.260198 1  12              Rx   d 4 01 00 00 00  Length = 0 BitCount = 0 ID = 18
   5.270165 1  64              Rx   d 4 2C 01 00 00  Length = 0 BitCount = 0 ID = 100
   5.270200 1  64              Rx   d 4 34 01 00 00  Length = 0 BitCount = 0 ID = 100
   5.290162 1  64              Rx   d 4 3C 01 00 00  Length = 0 BitCount = 0 ID = 100
   5.290299 1  11              Rx   d 8 53 0C 64 16 00 00 00 00  Length = 0 BitCount = 0 ID = 17
   5.300164 1  64              Rx   d 4 44 01 00 00  Length = 0 BitCount = 0 ID = 100
   5.310223 1  64              Rx   d 4 4C 01 00 00  Length = 0 BitCount = 0 ID = 100
   5.310257 1  65              Rx   d 3 01 00 00  Length = 0 BitCount = 0 ID = 101
   5.310301 1  10              Rx   d 8 06 3E 00 00 00 00 00 00  Length = 0 BitCount = 0 ID = 16
   5.310340 1  12              Rx   d 4 00 00 00 00  Length = 0 BitCount = 0 ID = 18
   5.310404 1  11              Rx   d 8 3B 0D 99 05 00 00 00 00  Length = 0 BitCount = 0 ID = 17
   5.310415 1  64              Rx   d 4 54 01 00 00  Length = 0 BitCount = 0 ID = 100
   5.330168 1  64              Rx   d 4 5C 01 00 00  Length = 0 BitCount = 0 ID = 100
   5.340163 1  64              Rx   d 4 64 01 00 00  Length = 0 BitCount = 0 ID = 100
   5.350165 1  64              Rx   d 4 6C 01 00 00  Length = 0 BitCount = 0 ID = 100
   5.350300 1  11              Rx   d 8 2A 0E D7 18 00 00 00 00  Length = 0 BitCount = 0 ID = 17
   5.350353 1  64              Rx   d 4 74 01 00 00  Length = 0 BitCount = 0 ID = 100
   5.350365 1  12              Rx   d 4 00 00 00 00  Length = 0 BitCount = 0 ID = 18
   5.350373 1  66              Rx   d 1 04  Length = 0 BitCount = 0 ID = 102
   5.370212 1  64              Rx   d 4 7C 01 00 00  Length = 0 BitCount = 0 ID = 100
   5.380203 1  64              Rx   d 4 84 01 00 00  Length = 0 BitCount = 0 ID = 100
   5.380237 1  11              Rx   d 8 1F 0F DD 2C 00 00 00 00  Length = 0 BitCount = 0 ID = 17
   5.390213 1  64              Rx   d 4 8C 01 00 00  Length = 0 BitCount = 0 ID = 100
   5.400203 1  64              Rx   d 4 94 01 00 00  Length = 0 BitCount = 0 ID = 100
   5.400242 1  64              Rx   d 4 9C 01 00 00  Length = 0 BitCount = 0 ID = 100
   5.400266 1  11              Rx   d 8 1A 10 F1 14 00 00 00 00  Length = 0 BitCount = 0 ID = 17
   5.400283 1  65              Rx   d 3 19 00 00  Length = 0 BitCount = 0 ID = 101
   5.400347 1  12              Rx   d 4 00 00 00 00  Length = 0 BitCount = 0 ID = 18
   5.400410 1  10              Rx   d 8 78 3C 00 00 00 00 00 00  Length = 0 BitCount = 0 ID = 16
   5.420202 1  64              Rx   d 4 A4 01 00 00  Length = 0 BitCount = 0 ID = 100
   5.430213 1  64              Rx   d 4 AC 01 00 00  Length = 0 BitCount = 0 ID = 100
   5.440203 1  64              Rx   d 4 B4 01 00 00  Length = 0 BitCount = 0 ID = 100
   5.440238 1  11              Rx   d 8 1B 11 F6 07 00 00 00 00  Length = 0 BitCount = 0 ID = 17
   5.440352 1  64              Rx   d 4 BC 01 00 00  Length = 0 BitCount = 0 ID = 100
   5.460203 1  64              Rx   d 4 C4 01 00 00  Length = 0 BitCount = 0 ID = 100
   5.460238 1  12              Rx   d 4 00 00 00 00  Length = 0 BitCount = 0 ID = 18
   5.460344 1  66              Rx   d 1 02  Length = 0 BitCount = 0 ID = 102
   5.470230 1  11              Rx   d 8 22 12 F9 0A 00 00 00 00  Length = 0 BitCount = 0 ID = 17
   5.470257 1  64              Rx   d 4 CC 01 00 00  Length = 0 BitCount = 0 ID = 100
   5.480180 1  64              Rx   d 4 D4 01 00 00  Length = 0 BitCount = 0 ID = 100
   5.480355 1  64              Rx   d 4 DC 01 00 00  Length = 0 BitCount = 0 ID = 100
   5.500216 1  64              Rx   d 4 E4 01 00 00  Length = 0 BitCount = 0 ID = 100
   5.500252 1  11              Rx   d 8 2E 13 CD 11 00 00 00 00  Length = 0 BitCount = 0 ID = 17
   5.510235 1  64              Rx   d 4 EC 01 00 00  Length = 0 BitCount = 0 ID = 100
   5.510269 1  12              Rx   d 4 00 00 00 00  Length = 0 BitCount = 0 ID = 18
   5.510291 1  10              Rx   d 8 DE 3A 00 00 00 00 00 00  Length = 0 BitCount = 0 ID = 16
   5.510349 1  65              Rx   d 3 32 00 00  Length = 0 BitCount = 0 ID = 101
   5.510403 1  64              Rx   d 4 F4 01 00 00  Length = 0 BitCount = 0 ID = 100
   5.520203 1  64              Rx   d 4 FC 01 00 00  Length = 0 BitCount = 0 ID = 100
   5.520240 1  11              Rx   d 8 3E 14 4D 22 00 00 00 00  Length = 0 BitCount = 0 ID = 17
   5.540232 1  64              Rx   d 4 04 02 00 00  Length = 0 BitCount = 0 ID = 100
   5.550219 1  64              Rx   d 4 0C 02 00 00  Length = 0 BitCount = 0 ID = 100
   5.560240 1  64              Rx   d 4 14 02 00 00  Length = 0 BitCount = 0 ID = 100
   5.560273 1  11              Rx   d 8 54 15 20 1D 00 00 00 00  Length = 0 BitCount = 0 ID = 17
   5.560385 1  66              Rx   d 1 04  Length = 0 BitCount = 0 ID = 102
   5.560417 1  12              Rx   d 4 00 00 00 00  Length = 0 BitCount = 0 ID = 18
   5.560477 1  64              Rx   d 4 1C 02 00 00  Length = 0 BitCount = 0 ID = 100
   5.580241 1  64              Rx   d 4 24 02 00 00  Length = 0 BitCount = 0 ID = 100
   5.590253 1  64              Rx   d 4 2C 02 00 00  Length = 0 BitCount = 0 ID = 100
   5.590290 1  11              Rx   d 8 6E 16 64 16 00 00 00 00  Length = 0 BitCount = 0 ID = 17
   5.600261 1  64              Rx   d 4 34 02 00 00  Length = 0 BitCount = 0 ID = 100
   5.600398 1  64              Rx   d 4 3C 02 00 00  Length = 0 BitCount = 0 ID = 100
   5.600412 1  65              Rx   d 3 19 00 00  Length = 0 BitCount = 0 ID = 101
   5.600439 1  10              Rx   d 8 37 39 00 00 00 00 00 00  Length = 0 BitCount = 0 ID = 16
   5.600467 1  12              Rx   d 4 00 00 00 00  Length = 0 BitCount = 0 ID = 18
   5.620237 1  11              Rx   d 8 8D 17 99 05 00 00 00 00  Length = 0 BitCount = 0 ID = 17
   5.620368 1  64              Rx   d 4 44 02 00 00  Length = 0 BitCount = 0 ID = 100
   5.630250 1  64              Rx   d 4 4C 02 00 00  Length = 0 BitCount = 0 ID = 100
   5.640286 1  64              Rx   d 4 54 02 00 00  Length = 0 BitCount = 0 ID = 100
   5.640323 1  64              Rx   d 4 5C 02 00 00  Length = 0 BitCount = 0 ID = 100
   5.640346 1  11              Rx   d 8 AF 18 D7 18 00 00 00 00  Length = 0 BitCount = 0 ID = 17
   5.650275 1  64              Rx   d 4 64 02 00 00  Length = 0 BitCount = 0 ID = 100
   5.650312 1  12              Rx   d 4 00 00 00 00  Length = 0 BitCount = 0 ID = 18
   5.650411 1  66              Rx   d 1 02  Length = 0 BitCount = 0 ID = 102
   5.670301 1  64              Rx   d 4 6C 02 00 00  Length = 0 BitCount = 0 ID = 100
   5.680244 1  64              Rx   d 4 74 02 00 00  Length = 0 BitCount = 0 ID = 100
   5.680281 1  11              Rx   d 8 D5 19 DD 2C 00 00 00 00  Length = 0 BitCount = 0 ID = 17
   5.680398 1  64              Rx   d 4 7C 02 00 00  Length = 0 BitCount = 0 ID = 100
   5.690241 1  64              Rx   d 4 84 02 00 00  Length = 0 BitCount = 0 ID = 100
   5.710227 1  64              Rx   d 4 8C 02 00 00  Length = 0 BitCount = 0 ID = 100
   5.710266 1  11              Rx   d 8 FE 1A F1 14 00 00 00 00  Length = 0 BitCount = 0 ID = 17
   5.710289 1  65              Rx   d 3 01 00 00  Length = 0 BitCount = 0 ID = 101
   5.710355 1  12              Rx   d 4 00 00 00 00  Length = 0 BitCount = 0 ID = 18
   5.710408 1  10              Rx   d 8 86 37 00 00 00 00 00 00  Length = 0 BitCount = 0 ID = 16
   5.720247 1  64              Rx   d 4 94 02 00 00  Length = 0 BitCount = 0 ID = 100
   5.730242 1  64              Rx   d 4 9C 02 00 00  Length = 0 BitCount = 0 ID = 100
   5.730400 1  64              Rx   d 4 A4 02 00 00  Length = 0 BitCount = 0 ID = 100
   5.730413 1  11              Rx   d 8 2A 1C F6 07 00 00 00 00  Length = 0 BitCount = 0 ID = 17
   5.750231 1  64              Rx   d 4 AC 02 00 00  Length = 0 BitCount = 0 ID = 100
   5.760248 1  64              Rx   d 4 B4 02 00 00  Length = 0 BitCount = 0 ID = 100
   5.760281 1  12              Rx   d 4 00 00 00 00  Length = 0 BitCount = 0 ID = 18
   5.760303 1  66              Rx   d 1 04  Length = 0 BitCount = 0 ID = 102
   5.770228 1  11              Rx   d 8 59 1D F9 0A 00 00 00 00  Length = 0 BitCount = 0 ID = 17
   5.770350 1  64              Rx   d 4 BC 02 00 00  Length = 0 BitCount = 0 ID = 100
   5.770373 1  64              Rx   d 4 C4 02 00 00  Length = 0 BitCount = 0 ID = 100
   5.790239 1  64              Rx   d 4 CC 02 00 00  Length = 0 BitCount = 0 ID = 100
   5.800150 1  64              Rx   d 4 D4 02 00 00  Length = 0 BitCount = 0 ID = 100
   5.800188 1  11              Rx   d 8 8B 1E CD 11 00 00 00 00  Length = 0 BitCount = 0 ID = 17
   5.810189 1  64              Rx   d 4 DC 02 00 00  Length = 0 BitCount = 0 ID = 100
   5.810224 1  12              Rx   d 4 01 00 00 00  Length = 0 BitCount = 0 ID = 18
   5.810337 1  10              Rx   d 8 CB 35 00 00 00 00 00 00  Length = 0 BitCount = 0 ID = 16
   5.810367 1  65              Rx   d 3 19 00 00  Length = 0 BitCount = 0 ID = 101
   5.810396 1  64              Rx   d 4 E4 02 00 00  Length = 0 BitCount = 0 ID = 100
   5.830234 1  64              Rx   d 4 EC 02 00 00  Length = 0 BitCount = 0 ID = 100
   5.830270 1  11              Rx   d 8 BE 1F 4D 22 00 00 00 00  Length = 0 BitCount = 0 ID = 17
   5.840299 1  64              Rx   d 4 F4 02 00 00  Length = 0 BitCount = 0 ID = 100
   5.850194 1  64              Rx   d 4 FC 02 00 00  Length = 0 BitCount = 0 ID = 100
   5.850341 1  64              Rx   d 4 04 03 00 00  Length = 0 BitCount = 0 ID = 100
   5.850354 1  11              Rx   d 8 F4 20 20 1D 00 00 00 00  Length = 0 BitCount = 0 ID = 17
   5.850362 1  66              Rx   d 1 02  Length = 0 BitCount = 0 ID = 102
   5.850392 1  12              Rx   d 4 00 00 00 00  Length = 0 BitCount = 0 ID = 18
   5.870185 1  64              Rx   d 4 0C 03 00 00  Length = 0 BitCount = 0 ID = 100
   5.880196 1  64              Rx   d 4 14 03 00 00  Length = 0 BitCount = 0 ID = 100
   5.890274 1  64              Rx   d 4 1C 03 00 00  Length = 0 BitCount = 0 ID = 100
   5.890311 1  11              Rx   d 8 2B 22 64 16 00 00 00 00  Length = 0 BitCount = 0 ID = 17
   5.890425 1  64              Rx   d 4 24 03 00 00  Length = 0 BitCount = 0 ID = 100
   5.900288 1  64              Rx   d 4 2C 03 00 00  Length = 0 BitCount = 0 ID = 100
   5.900326 1  65              Rx   d 3 32 00 00  Length = 0 BitCount = 0 ID = 101
   5.900394 1  10              Rx   d 8 07 34 00 00 00 00 00 00  Length = 0 BitCount = 0 ID = 16
   5.900429 1  12              Rx   d 4 00 00 00 00  Length = 0 BitCount = 0 ID = 18
   5.920258 1  11              Rx   d 8 63 23 99 05 00 00 00 00  Length = 0 BitCount = 0 ID = 17
   5.920295 1  64              Rx   d 4 34 03 00 00  Length = 0 BitCount = 0 ID = 100
   5.930234 1  64              Rx   d 4 3C 03 00 00  Length = 0 BitCount = 0 ID = 100
   5.940252 1  64              Rx   d 4 44 03 00 00  Length = 0 BitCount = 0 ID = 100
   5.940284 1  64              Rx   d 4 4C 03 00 00  Length = 0 BitCount = 0 ID = 100
   5.940307 1  11              Rx   d 8 9C 24 D7 18 00 00 00 00  Length = 0 BitCount = 0 ID = 17
   5.960253 1  64              Rx   d 4 54 03 00 00  Length = 0 BitCount = 0 ID = 100
   5.960285 1  12              Rx   d 4 00 00 00 00  Length = 0 BitCount = 0 ID = 18
   5.960389 1  66              Rx   d 1 04  Length = 0 BitCount = 0 ID = 102
   5.970257 1  64              Rx   d 4 5C 03 00 00  Length = 0 BitCount = 0 ID = 100
   5.980257 1  64              Rx   d 4 64 03 00 00  Length = 0 BitCount = 0 ID = 100
   5.980424 1  11              Rx   d 8 D6 25 DD 2C 00 00 00 00  Length = 0 BitCount = 0 ID = 17
   5.980476 1  64              Rx   d 4 6C 03 00 00  Length = 0 BitCount = 0 ID = 100
   6.000260 1  64              Rx   d 4 74 03 00 00  Length = 0 BitCount = 0 ID = 100
   6.010259 1  64              Rx   d 4 7C 03 00 00  Length = 0 BitCount = 0 ID = 100
   6.010291 1  11              Rx   d 8 10 27 F1 14 00 00 00 00  Length = 0 BitCount = 0 ID = 17
   6.010316 1  65              Rx   d 3 19 00 00  Length = 0 BitCount = 0 ID = 101
   6.010375 1  12              Rx   d 4 00 00 00 00  Length = 0 BitCount = 0 ID = 18
   6.010396 1  10              Rx   d 8 3B 32 00 00 00 00 00 00  Length = 0 BitCount = 0 ID = 16
   6.010437 1  64              Rx   d 4 64 00 00 00  Length = 0 BitCount = 0 ID = 100
   6.020264 1  64              Rx   d 4 6C 00 00 00  Length = 0 BitCount = 0 ID = 100
   6.040254 1  64              Rx   d 4 74 00 00 00  Length = 0 BitCount = 0 ID = 100
   6.040431 1  11              Rx   d 8 4A 28 F6 07 00 00 00 00  Length = 0 BitCount = 0 ID = 17
   6.050267 1  64              Rx   d 4 7C 00 00 00  Length = 0 BitCount = 0 ID = 100
   6.060287 1  64              Rx   d 4 84 00 00 00  Length = 0 BitCount = 0 ID = 100
   6.060329 1  12              Rx   d 4 00 00 00 00  Length = 0 BitCount = 0 ID = 18
   6.060459 1  66              Rx   d 1 02  Length = 0 BitCount = 0 ID = 102
   6.060490 1  11              Rx   d 8 84 29 F9 0A 00 00 00 00  Length = 0 BitCount = 0 ID = 17
   6.060501 1  64              Rx   d 4 8C 00 00 00  Length = 0 BitCount = 0 ID = 100
   6.080264 1  64              Rx   d 4 94 00 00 00  Length = 0 BitCount = 0 ID = 100
   6.090264 1  64              Rx   d 4 9C 00 00 00  Length = 0 BitCount = 0 ID = 100
   6.100264 1  64              Rx   d 4 A4 00 00 00  Length = 0 BitCount = 0 ID = 100
   6.100426 1  11              Rx   d 8 BD 2A CD 11 00 00 00 00  Length = 0 BitCount = 0 ID = 17
   6.100478 1  64              Rx   d 4 AC 00 00 00  Length = 0 BitCount = 0 ID = 100
   6.100490 1  10              Rx   d 8 69 30 00 00 00 00 00 00  Length = 0 BitCount = 0 ID = 16
   6.100516 1  12              Rx   d 4 00 00 00 00  Length = 0 BitCount = 0 ID = 18
   6.100527 1  65              Rx   d 3 01 00 00  Length = 0 BitCount = 0 ID = 101
   6.120259 1  64              Rx   d 4 B4 00 00 00  Length = 0 BitCount = 0 ID = 100
   6.130240 1  64              Rx   d 4 BC 00 00 00  Length = 0 BitCount = 0 ID = 100
   6.130278 1  11              Rx   d 8 F5 2B 4D 22 00 00 00 00  Length = 0 BitCount = 0 ID = 17
   6.140262 1  64              Rx   d 4 C4 00 00 00  Length = 0 BitCount = 0 ID = 100
   6.140294 1  64              Rx   d 4 CC 00 00 00  Length = 0 BitCount = 0 ID = 100
   6.150266 1  64              Rx   d 4 D4 00 00 00  Length = 0 BitCount = 0 ID = 100
   6.150298 1  11              Rx   d 8 2C 2D 20 1D 00 00 00 00  Length = 0 BitCount = 0 ID = 17
   6.150320 1  66              Rx   d 1 04  Length = 0 BitCount = 0 ID = 102
   6.150390 1  12              Rx   d 4 00 00 00 00  Length = 0 BitCount = 0 ID = 18
   6.170276 1  64              Rx   d 4 DC 00 00 00  Length = 0 BitCount = 0 ID = 100
   6.180295 1  64              Rx   d 4 E4 00 00 00  Length = 0 BitCount = 0 ID = 100
   6.180332 1  64              Rx   d 4 EC 00 00 00  Length = 0 BitCount = 0 ID = 100
   6.180356 1  11              Rx   d 8 62 2E 64 16 00 00 00 00  Length = 0 BitCount = 0 ID = 17
   6.190293 1  64              Rx   d 4 F4 00 00 00  Length = 0 BitCount = 0 ID = 100
   6.210248 1  64              Rx   d 4 FC 00 00 00  Length = 0 BitCount = 0 ID = 100
   6.210286 1  12              Rx   d 4 00 00 00 00  Length = 0 BitCount = 0 ID = 18
   6.210397 1  65              Rx   d 3 19 00 00  Length = 0 BitCount = 0 ID = 101
   6.210437 1  10              Rx   d 8 91 2E 00 00 00 00 00 00  Length = 0 BitCount = 0 ID = 16
   6.220267 1  64              Rx   d 4 04 01 00 00  Length = 0 BitCount = 0 ID = 100
